! Synthetic PCIe Connector S4P ˇX Practice File
! Port mapping:
!   Port 1 = D+ TX    Port 2 = D+ RX
!   Port 3 = D- TX    Port 4 = D- RX
! Frequency: 0.01 ~ 20 GHz, 201 points
! IL @ 8 GHz ~ -1.0 dB | RL ~ -25 dB | Zdiff ~ 98 ohm
# GHz S RI R 50
0.010000    0.000000016    0.000125664    0.998827544   -0.005020697    0.000009951    0.000017185    0.000030812    0.000022150
                0.998827544   -0.005020697    0.000000016    0.000125664    0.000030812    0.000022150    0.000009951    0.000017185
                0.000009951    0.000017185    0.000030812    0.000022150    0.000000016    0.000126166    1.006473583   -0.002699120
                0.000030812    0.000022150    0.000009951    0.000017185    1.006473583   -0.002699120    0.000000016    0.000126166
0.109950    0.000001909    0.001381670    0.994567059   -0.055022669    0.000054447    0.000091367    0.000105727    0.000068224
                0.994567059   -0.055022669    0.000001909    0.001381670    0.000105727    0.000068224    0.000054447    0.000091367
                0.000054447    0.000091367    0.000105727    0.000068224    0.000001917    0.001387196    1.002302296   -0.053107900
                0.000105727    0.000068224    0.000054447    0.000091367    1.002302296   -0.053107900    0.000001917    0.001387196
0.209900    0.000006957    0.002637663    0.989013122   -0.104736977    0.000087412    0.000142581    0.000150631    0.000086809
                0.989013122   -0.104736977    0.000006957    0.002637663    0.000150631    0.000086809    0.000087412    0.000142581
                0.000087412    0.000142581    0.000150631    0.000086809    0.000006985    0.002648213    0.996825483   -0.103230161
                0.000150631    0.000086809    0.000087412    0.000142581    0.996825483   -0.103230161    0.000006985    0.002648213
0.309850    0.000015161    0.003893631    0.981297554   -0.154082633    0.000117151    0.000185809    0.000188080    0.000096147
                0.981297554   -0.154082633    0.000015161    0.003893631    0.000188080    0.000096147    0.000117151    0.000185809
                0.000117151    0.000185809    0.000188080    0.000096147    0.000015221    0.003909205    0.989168123   -0.152986242
                0.000188080    0.000096147    0.000117151    0.000185809    0.989168123   -0.152986242    0.000015221    0.003909205
0.409800    0.000026519    0.005149562    0.971292092   -0.202953121    0.000145302    0.000224169    0.000221578    0.000099571
                0.971292092   -0.202953121    0.000026519    0.005149562    0.000221578    0.000099571    0.000145302    0.000224169
                0.000145302    0.000224169    0.000221578    0.000099571    0.000026625    0.005170160    0.979200713   -0.202269007
                0.000221578    0.000099571    0.000145302    0.000224169    0.979200713   -0.202269007    0.000026625    0.005170160
0.509750    0.000041031    0.006405445    0.958963802   -0.251236005    0.000172553    0.000259024    0.000252392    0.000098501
                0.958963802   -0.251236005    0.000041031    0.006405445    0.000252392    0.000098501    0.000172553    0.000259024
                0.000172553    0.000259024    0.000252392    0.000098501    0.000041196    0.006431066    0.966889798   -0.250965123
                0.000252392    0.000098501    0.000172553    0.000259024    0.966889798   -0.250965123    0.000041196    0.006431066
0.609700    0.000058698    0.007661266    0.944314348   -0.298817117    0.000199265    0.000291131    0.000281091    0.000093728
                0.944314348   -0.298817117    0.000058698    0.007661266    0.000281091    0.000093728    0.000199265    0.000291131
                0.000199265    0.000291131    0.000281091    0.000093728    0.000058933    0.007691911    0.952236791   -0.298959429
                0.000281091    0.000093728    0.000199265    0.000291131    0.952236791   -0.298959429    0.000058933    0.007691911
0.709650    0.000079519    0.008917016    0.927363728   -0.345582294    0.000225655    0.000320962    0.000307952    0.000085762
                0.927363728   -0.345582294    0.000079519    0.008917016    0.000307952    0.000085762    0.000225655    0.000320962
                0.000225655    0.000320962    0.000307952    0.000085762    0.000079838    0.008952684    0.935261586   -0.346136728
                0.000307952    0.000085762    0.000225655    0.000320962    0.935261586   -0.346136728    0.000079838    0.008952684
0.809600    0.000103494    0.010172681    0.908144141   -0.391418353    0.000251860    0.000348839    0.000333110    0.000074969
                0.908144141   -0.391418353    0.000103494    0.010172681    0.000333110    0.000074969    0.000251860    0.000348839
                0.000251860    0.000348839    0.000333110    0.000074969    0.000103908    0.010213371    0.915996380   -0.392382781
                0.000333110    0.000074969    0.000251860    0.000348839    0.915996380   -0.392382781    0.000103908    0.010213371
0.909550    0.000130622    0.011428249    0.886697151   -0.436213748    0.000277975    0.000374993    0.000356619    0.000061631
                0.886697151   -0.436213748    0.000130622    0.011428249    0.000356619    0.000061631    0.000277975    0.000374993
                0.000277975    0.000374993    0.000356619    0.000061631    0.000131144    0.011473962    0.894482820   -0.437584977
                0.000356619    0.000061631    0.000277975    0.000374993    0.894482820   -0.437584977    0.000131144    0.011473962
1.009500    0.000160902    0.012683710    0.863072178   -0.479859072    0.000304063    0.000399597    0.000378489    0.000045979
                0.863072178   -0.479859072    0.000160902    0.012683710    0.000378489    0.000045979    0.000304063    0.000399597
                0.000304063    0.000399597    0.000378489    0.000045979    0.000161546    0.012734445    0.870770480   -0.481632845
                0.000378489    0.000045979    0.000304063    0.000399597    0.870770480   -0.481632845    0.000161546    0.012734445
1.109450    0.000194335    0.013939051    0.837325580   -0.522247474    0.000330173    0.000422784    0.000398704    0.000028215
                0.837325580   -0.522247474    0.000194335    0.013939051    0.000398704    0.000028215    0.000330173    0.000422784
                0.000330173    0.000422784    0.000398704    0.000028215    0.000195112    0.013994807    0.844915940   -0.524418476
                0.000398704    0.000028215    0.000330173    0.000422784    0.844915940   -0.524418476    0.000195112    0.013994807
1.209400    0.000230919    0.015194259    0.809520038   -0.563275021    0.000356336    0.000444658    0.000417230    0.000008516
                0.809520038   -0.563275021    0.000230919    0.015194259    0.000417230    0.000008516    0.000356336    0.000444658
                0.000356336    0.000444658    0.000417230    0.000008516    0.000231843    0.015255036    0.816982166   -0.565836885
                0.000417230    0.000008516    0.000356336    0.000444658    0.816982166   -0.565836885    0.000231843    0.015255036
1.309350    0.000270654    0.016449324    0.779724103   -0.602841025    0.000382578    0.000465306    0.000434026   -0.000012952
                0.779724103   -0.602841025    0.000270654    0.016449324    0.000434026   -0.000012952    0.000382578    0.000465306
                0.000382578    0.000465306    0.000434026   -0.000012952    0.000271736    0.016515121    0.787038050   -0.605786351
                0.000434026   -0.000012952    0.000382578    0.000465306    0.787038050   -0.605786351    0.000271736    0.016515121
1.409300    0.000313538    0.017704233    0.748011819   -0.640848343    0.000408916    0.000484796    0.000449044   -0.000036033
                0.748011819   -0.640848343    0.000313538    0.017704233    0.000449044   -0.000036033    0.000408916    0.000484796
                0.000408916    0.000484796    0.000449044   -0.000036033    0.000314792    0.017775050    0.755158039   -0.644168715
                0.000449044   -0.000036033    0.000408916    0.000484796    0.755158039   -0.644168715    0.000314792    0.017775050
1.509250    0.000359572    0.018958975    0.714462403   -0.677203657    0.000435361    0.000503187    0.000462236   -0.000060579
                0.714462403   -0.677203657    0.000359572    0.018958975    0.000462236   -0.000060579    0.000435361    0.000503187
                0.000435361    0.000503187    0.000462236   -0.000060579    0.000361010    0.019034811    0.721421806   -0.680889662
                0.000462236   -0.000060579    0.000435361    0.000503187    0.721421806   -0.680889662    0.000361010    0.019034811
1.609200    0.000408754    0.020213538    0.679159951   -0.711817732    0.000461923    0.000520528    0.000473553   -0.000086443
                0.679159951   -0.711817732    0.000408754    0.020213538    0.000473553   -0.000086443    0.000461923    0.000520528
                0.000461923    0.000520528    0.000473553   -0.000086443    0.000410389    0.020294392    0.685913957   -0.715858987
                0.000473553   -0.000086443    0.000461923    0.000520528    0.685913957   -0.715858987    0.000410389    0.020294392
1.709150    0.000461084    0.021467909    0.642193155   -0.744605664    0.000488605    0.000536860    0.000482948   -0.000113484
                0.642193155   -0.744605664    0.000461084    0.021467909    0.000482948   -0.000113484    0.000488605    0.000536860
                0.000488605    0.000536860    0.000482948   -0.000113484    0.000462928    0.021553781    0.648723745   -0.748990841
                0.000482948   -0.000113484    0.000488605    0.000536860    0.648723745   -0.748990841    0.000462928    0.021553781
1.809100    0.000516560    0.022722078    0.603655026   -0.775487103    0.000515412    0.000552218    0.000490379   -0.000141560
                0.603655026   -0.775487103    0.000516560    0.022722078    0.000490379   -0.000141560    0.000515412    0.000552218
                0.000515412    0.000552218    0.000490379   -0.000141560    0.000518626    0.022812966    0.609944792   -0.780203960
                0.000490379   -0.000141560    0.000515412    0.000552218    0.609944792   -0.780203960    0.000518626    0.022812966
1.909050    0.000575181    0.023976031    0.563642624   -0.804386468    0.000542343    0.000566635    0.000495804   -0.000170532
                0.563642624   -0.804386468    0.000575181    0.023976031    0.000495804   -0.000170532    0.000542343    0.000566635
                0.000542343    0.000566635    0.000495804   -0.000170532    0.000577482    0.024071935    0.569674816   -0.809421884
                0.000495804   -0.000170532    0.000542343    0.000566635    0.569674816   -0.809421884    0.000577482    0.024071935
2.009000    0.000636946    0.025229758    0.522256778   -0.831233149    0.000569398    0.000580136    0.000499191   -0.000200261
                0.522256778   -0.831233149    0.000636946    0.025229758    0.000499191   -0.000200261    0.000569398    0.000580136
                0.000569398    0.000580136    0.000499191   -0.000200261    0.000639494    0.025330677    0.528015353   -0.836573155
                0.000499191   -0.000200261    0.000569398    0.000580136    0.528015353   -0.836573155    0.000639494    0.025330677
2.108950    0.000701855    0.026483247    0.479601813   -0.855961686    0.000596575    0.000592746    0.000500509   -0.000230608
                0.479601813   -0.855961686    0.000701855    0.026483247    0.000500509   -0.000230608    0.000596575    0.000592746
                0.000596575    0.000592746    0.000500509   -0.000230608    0.000704662    0.026589180    0.485071473   -0.861591506
                0.000500509   -0.000230608    0.000596575    0.000592746    0.485071473   -0.861591506    0.000704662    0.026589180
2.208900    0.000769905    0.027736485    0.435785265   -0.878511943    0.000623870    0.000604486    0.000499733   -0.000261435
                0.435785265   -0.878511943    0.000769905    0.027736485    0.000499733   -0.000261435    0.000623870    0.000604486
                0.000623870    0.000604486    0.000499733   -0.000261435    0.000772985    0.027847431    0.440951503   -0.884416032
                0.000499733   -0.000261435    0.000623870    0.000604486    0.440951503   -0.884416032    0.000772985    0.027847431
2.308850    0.000841096    0.028989461    0.390917594   -0.898829258    0.000651279    0.000615374    0.000496847   -0.000292605
                0.390917594   -0.898829258    0.000841096    0.028989461    0.000496847   -0.000292605    0.000651279    0.000615374
                0.000651279    0.000615374    0.000496847   -0.000292605    0.000844461    0.029105419    0.395766731   -0.904991347
                0.000496847   -0.000292605    0.000651279    0.000615374    0.395766731   -0.904991347    0.000844461    0.029105419
2.408800    0.000915426    0.030242164    0.345111895   -0.916864587    0.000678798    0.000625426    0.000491837   -0.000323980
                0.345111895   -0.916864587    0.000915426    0.030242164    0.000491837   -0.000323980    0.000678798    0.000625426
                0.000678798    0.000625426    0.000491837   -0.000323980    0.000919088    0.030363132    0.349631120   -0.923267724
                0.000491837   -0.000323980    0.000678798    0.000625426    0.349631120   -0.923267724    0.000919088    0.030363132
2.508750    0.000992894    0.031494580    0.298483604   -0.932574627    0.000706420    0.000634659    0.000484700   -0.000355423
                0.298483604   -0.932574627    0.000992894    0.031494580    0.000484700   -0.000355423    0.000706420    0.000634659
                0.000706420    0.000634659    0.000484700   -0.000355423    0.000996866    0.031620559    0.302661002   -0.939201223
                0.000484700   -0.000355423    0.000706420    0.000634659    0.302661002   -0.939201223    0.000996866    0.031620559
2.608700    0.001073499    0.032746700    0.251150192   -0.945921926    0.000734140    0.000643084    0.000475437   -0.000386798
                0.251150192   -0.945921926    0.001073499    0.032746700    0.000475437   -0.000386798    0.000734140    0.000643084
                0.000734140    0.000643084    0.000475437   -0.000386798    0.001077793    0.032877687    0.254974783   -0.952753804
                0.000475437   -0.000386798    0.000734140    0.000643084    0.254974783   -0.952753804    0.001077793    0.032877687
2.708650    0.001157238    0.033998510    0.203230869   -0.956874976    0.000761951    0.000650716    0.000464054   -0.000417970
                0.203230869   -0.956874976    0.001157238    0.033998510    0.000464054   -0.000417970    0.000761951    0.000650716
                0.000761951    0.000650716    0.000464054   -0.000417970    0.001161867    0.034134504    0.206692634   -0.963893422
                0.000464054   -0.000417970    0.000761951    0.000650716    0.206692634   -0.963893422    0.001161867    0.034134504
2.808600    0.001244110    0.035249999    0.154846275   -0.965408293    0.000789847    0.000657564    0.000450569   -0.000448805
                0.154846275   -0.965408293    0.001244110    0.035249999    0.000450569   -0.000448805    0.000789847    0.000657564
                0.000789847    0.000657564    0.000450569   -0.000448805    0.001249087    0.035390999    0.157936182   -0.972594103
                0.000450569   -0.000448805    0.000789847    0.000657564    0.157936182   -0.972594103    0.001249087    0.035390999
2.908550    0.001334114    0.036501155    0.106118168   -0.971502481    0.000817819    0.000663639    0.000435001   -0.000479172
                0.106118168   -0.971502481    0.001334114    0.036501155    0.000435001   -0.000479172    0.000817819    0.000663639
                0.000817819    0.000663639    0.000435001   -0.000479172    0.001339451    0.036647160    0.108828198   -0.978836016
                0.000435001   -0.000479172    0.000817819    0.000663639    0.108828198   -0.978836016    0.001339451    0.036647160
3.008500    0.001427248    0.037751968    0.057169117   -0.975144277    0.000845860    0.000668951    0.000417380   -0.000508938
                0.057169117   -0.975144277    0.001427248    0.037751968    0.000417380   -0.000508938    0.000845860    0.000668951
                0.000845860    0.000668951    0.000417380   -0.000508938    0.001432957    0.037902975    0.059492284   -0.982605515
                0.000417380   -0.000508938    0.000845860    0.000668951    0.059492284   -0.982605515    0.001432957    0.037902975
3.108450    0.001523510    0.039002423    0.008122187   -0.976326586    0.000873963    0.000673507    0.000397742   -0.000537976
                0.008122187   -0.976326586    0.001523510    0.039002423    0.000397742   -0.000537976    0.000873963    0.000673507
                0.000873963    0.000673507    0.000397742   -0.000537976    0.001529604    0.039158433    0.010052557   -0.983895176
                0.000397742   -0.000537976    0.000873963    0.000673507    0.010052557   -0.983895176    0.001529604    0.039158433
3.208400    0.001622898    0.040252512   -0.040899372   -0.975048492    0.000902118    0.000677318    0.000376128   -0.000566160
               -0.040899372   -0.975048492    0.001622898    0.040252512    0.000376128   -0.000566160    0.000902118    0.000677318
                0.000902118    0.000677318    0.000376128   -0.000566160    0.001629390    0.040413522   -0.039366667   -0.982703812
                0.000376128   -0.000566160    0.000902118    0.000677318   -0.039366667   -0.982703812    0.001629390    0.040413522
3.308350    0.001725411    0.041502220   -0.089772440   -0.971315262    0.000930319    0.000680389    0.000352589   -0.000593366
               -0.089772440   -0.971315262    0.001725411    0.041502220    0.000352589   -0.000593366    0.000930319    0.000680389
                0.000930319    0.000680389    0.000352589   -0.000593366    0.001732313    0.041668229   -0.088641187   -0.979036471
                0.000352589   -0.000593366    0.000930319    0.000680389   -0.088641187   -0.979036471    0.001732313    0.041668229
3.408300    0.001831047    0.042751537   -0.138374338   -0.965138332    0.000958556    0.000682728    0.000327178   -0.000619475
               -0.138374338   -0.965138332    0.001831047    0.042751537    0.000327178   -0.000619475    0.000958556    0.000682728
                0.000958556    0.000682728    0.000327178   -0.000619475    0.001838371    0.042922543   -0.137647237   -0.972904428
                0.000327178   -0.000619475    0.000958556    0.000682728   -0.137647237   -0.972904428    0.001838371    0.042922543
3.508250    0.001939803    0.044000452   -0.186583142   -0.956535267    0.000986820    0.000684342    0.000299960   -0.000644370
               -0.186583142   -0.956535267    0.001939803    0.044000452    0.000299960   -0.000644370    0.000986820    0.000684342
                0.000986820    0.000684342    0.000299960   -0.000644370    0.001947562    0.044176453   -0.186261794   -0.964325146
                0.000299960   -0.000644370    0.000986820    0.000684342   -0.186261794   -0.964325146    0.001947562    0.044176453
3.608200    0.002051677    0.045248951   -0.234277985   -0.945529726    0.001015104    0.000685237    0.000271001   -0.000667936
               -0.234277985   -0.945529726    0.002051677    0.045248951    0.000271001   -0.000667936    0.001015104    0.000685237
                0.001015104    0.000685237    0.000271001   -0.000667936    0.002059884    0.045429947   -0.234362894   -0.953322235
                0.000271001   -0.000667936    0.001015104    0.000685237   -0.234362894   -0.953322235    0.002059884    0.045429947
3.708150    0.002166668    0.046497025   -0.281339368   -0.932151388    0.001043397    0.000685418    0.000240378   -0.000690067
