! Synthetic PCIe Connector S4P - Low Impedance Version
! Port mapping: Port1=D+ TX, Port2=D+ RX, Port3=D- TX, Port4=D- RX
! Zdiff ~ 75 ohm | Delay ~ 80.0 ps | Same loss as original
# GHz S RI R 50
0.010000    -0.000022258  -0.001465896    0.999933137  -0.005235660    0.000000000  0.000000000    0.000000000  0.000000000
                0.999933137  -0.005235660    -0.000022258  -0.001465896    0.000000000  0.000000000    0.000000000  0.000000000
                0.000000000  0.000000000    0.000000000  0.000000000    -0.000022258  -0.001465896    0.999933137  -0.005235660
                0.000000000  0.000000000    0.000000000  0.000000000    0.999933137  -0.005235660    -0.000022258  -0.001465896
0.109950    -0.001085960  -0.016064130    0.997642902  -0.057489956    0.000000000  0.000000000    0.000000000  0.000000000
                0.997642902  -0.057489956    -0.001085960  -0.016064130    0.000000000  0.000000000    0.000000000  0.000000000
                0.000000000  0.000000000    0.000000000  0.000000000    -0.001085960  -0.016064130    0.997642902  -0.057489956
                0.000000000  0.000000000    0.000000000  0.000000000    0.997642902  -0.057489956    -0.001085960  -0.016064130
0.209900    -0.003664481  -0.030449708    0.992418494  -0.109467302    0.000000000  0.000000000    0.000000000  0.000000000
                0.992418494  -0.109467302    -0.003664481  -0.030449708    0.000000000  0.000000000    0.000000000  0.000000000
                0.000000000  0.000000000    0.000000000  0.000000000    -0.003664481  -0.030449708    0.992418494  -0.109467302
                0.000000000  0.000000000    0.000000000  0.000000000    0.992418494  -0.109467302    -0.003664481  -0.030449708
0.309850    -0.007722270  -0.044460592    0.984294673  -0.160972620    0.000000000  0.000000000    0.000000000  0.000000000
                0.984294673  -0.160972620    -0.007722270  -0.044460592    0.000000000  0.000000000    0.000000000  0.000000000
                0.000000000  0.000000000    0.000000000  0.000000000    -0.007722270  -0.044460592    0.984294673  -0.160972620
                0.000000000  0.000000000    0.000000000  0.000000000    0.984294673  -0.160972620    -0.007722270  -0.044460592
0.409800    -0.013205490  -0.057940641    0.973323414  -0.211816259    0.000000000  0.000000000    0.000000000  0.000000000
                0.973323414  -0.211816259    -0.013205490  -0.057940641    0.000000000  0.000000000    0.000000000  0.000000000
                0.000000000  0.000000000    0.000000000  0.000000000    -0.013205490  -0.057940641    0.973323414  -0.211816259
                0.000000000  0.000000000    0.000000000  0.000000000    0.973323414  -0.211816259    -0.013205490  -0.057940641
0.509750    -0.020043075  -0.070741846    0.959572889  -0.261816030    0.000000000  0.000000000    0.000000000  0.000000000
                0.959572889  -0.261816030    -0.020043075  -0.070741846    0.000000000  0.000000000    0.000000000  0.000000000
                0.000000000  0.000000000    0.000000000  0.000000000    -0.020043075  -0.070741846    0.959572889  -0.261816030
                0.000000000  0.000000000    0.000000000  0.000000000    0.959572889  -0.261816030    -0.020043075  -0.070741846
0.609700    -0.028148081  -0.082726360    0.943126172  -0.310799030    0.000000000  0.000000000    0.000000000  0.000000000
                0.943126172  -0.310799030    -0.028148081  -0.082726360    0.000000000  0.000000000    0.000000000  0.000000000
                0.000000000  0.000000000    0.000000000  0.000000000    -0.028148081  -0.082726360    0.943126172  -0.310799030
                0.000000000  0.000000000    0.000000000  0.000000000    0.943126172  -0.310799030    -0.028148081  -0.082726360
0.709650    -0.037419298  -0.093768272    0.924079692  -0.358603207    0.000000000  0.000000000    0.000000000  0.000000000
                0.924079692  -0.358603207    -0.037419298  -0.093768272    0.000000000  0.000000000    0.000000000  0.000000000
                0.000000000  0.000000000    0.000000000  0.000000000    -0.037419298  -0.093768272    0.924079692  -0.358603207
                0.000000000  0.000000000    0.000000000  0.000000000    0.924079692  -0.358603207    -0.037419298  -0.093768272
0.809600    -0.047743057  -0.103755086    0.902541498  -0.405078650    0.000000000  0.000000000    0.000000000  0.000000000
                0.902541498  -0.405078650    -0.047743057  -0.103755086    0.000000000  0.000000000    0.000000000  0.000000000
                0.000000000  0.000000000    0.000000000  0.000000000    -0.047743057  -0.103755086    0.902541498  -0.405078650
                0.000000000  0.000000000    0.000000000  0.000000000    0.902541498  -0.405078650    -0.047743057  -0.103755086
0.909550    -0.058995196  -0.112588907    0.878629400  -0.450088554    0.000000000  0.000000000    0.000000000  0.000000000
                0.878629400  -0.450088554    -0.058995196  -0.112588907    0.000000000  0.000000000    0.000000000  0.000000000
                0.000000000  0.000000000    0.000000000  0.000000000    -0.058995196  -0.112588907    0.878629400  -0.450088554
                0.000000000  0.000000000    0.000000000  0.000000000    0.878629400  -0.450088554    -0.058995196  -0.112588907
1.009500    -0.071043097  -0.120187301    0.852469025  -0.493509875    0.000000000  0.000000000    0.000000000  0.000000000
                0.852469025  -0.493509875    -0.071043097  -0.120187301    0.000000000  0.000000000    0.000000000  0.000000000
                0.000000000  0.000000000    0.000000000  0.000000000    -0.071043097  -0.120187301    0.852469025  -0.493509875
                0.000000000  0.000000000    0.000000000  0.000000000    0.852469025  -0.493509875    -0.071043097  -0.120187301
1.109450    -0.083747771  -0.126483835    0.824191876  -0.535233672    0.000000000  0.000000000    0.000000000  0.000000000
                0.824191876  -0.535233672    -0.083747771  -0.126483835    0.000000000  0.000000000    0.000000000  0.000000000
                0.000000000  0.000000000    0.000000000  0.000000000    -0.083747771  -0.126483835    0.824191876  -0.535233672
                0.000000000  0.000000000    0.000000000  0.000000000    0.824191876  -0.535233672    -0.083747771  -0.126483835
1.209400    -0.096965913  -0.131428328    0.793933408  -0.575165138    0.000000000  0.000000000    0.000000000  0.000000000
                0.793933408  -0.575165138    -0.096965913  -0.131428328    0.000000000  0.000000000    0.000000000  0.000000000
                0.000000000  0.000000000    0.000000000  0.000000000    -0.096965913  -0.131428328    0.793933408  -0.575165138
                0.000000000  0.000000000    0.000000000  0.000000000    0.793933408  -0.575165138    -0.096965913  -0.131428328
1.309350    -0.110551892  -0.134986807    0.761831212  -0.613223355    0.000000000  0.000000000    0.000000000  0.000000000
                0.761831212  -0.613223355    -0.110551892  -0.134986807    0.000000000  0.000000000    0.000000000  0.000000000
                0.000000000  0.000000000    0.000000000  0.000000000    -0.110551892  -0.134986807    0.761831212  -0.613223355
                0.000000000  0.000000000    0.000000000  0.000000000    0.761831212  -0.613223355    -0.110551892  -0.134986807
1.409300    -0.124359640  -0.137141219    0.728023308  -0.649340797    0.000000000  0.000000000    0.000000000  0.000000000
                0.728023308  -0.649340797    -0.124359640  -0.137141219    0.000000000  0.000000000    0.000000000  0.000000000
                0.000000000  0.000000000    0.000000000  0.000000000    -0.124359640  -0.137141219    0.728023308  -0.649340797
                0.000000000  0.000000000    0.000000000  0.000000000    0.728023308  -0.649340797    -0.124359640  -0.137141219
1.509250    -0.138244396  -0.137888923    0.692646616  -0.683462615    0.000000000  0.000000000    0.000000000  0.000000000
                0.692646616  -0.683462615    -0.138244396  -0.137888923    0.000000000  0.000000000    0.000000000  0.000000000
                0.000000000  0.000000000    0.000000000  0.000000000    -0.138244396  -0.137888923    0.692646616  -0.683462615
                0.000000000  0.000000000    0.000000000  0.000000000    0.692646616  -0.683462615    -0.138244396  -0.137888923
1.609200    -0.152064299  -0.137241992    0.655835594  -0.715545739    0.000000000  0.000000000    0.000000000  0.000000000
                0.655835594  -0.715545739    -0.152064299  -0.137241992    0.000000000  0.000000000    0.000000000  0.000000000
                0.000000000  0.000000000    0.000000000  0.000000000    -0.152064299  -0.137241992    0.655835594  -0.715545739
                0.000000000  0.000000000    0.000000000  0.000000000    0.655835594  -0.715545739    -0.152064299  -0.137241992
1.709150    -0.165681801  -0.135226381    0.617721095  -0.745557846    0.000000000  0.000000000    0.000000000  0.000000000
                0.617721095  -0.745557846    -0.165681801  -0.135226381    0.000000000  0.000000000    0.000000000  0.000000000
                0.000000000  0.000000000    0.000000000  0.000000000    -0.165681801  -0.135226381    0.617721095  -0.745557846
                0.000000000  0.000000000    0.000000000  0.000000000    0.617721095  -0.745557846    -0.165681801  -0.135226381
1.809100    -0.178964900  -0.131880972    0.578429424  -0.773476224    0.000000000  0.000000000    0.000000000  0.000000000
                0.578429424  -0.773476224    -0.178964900  -0.131880972    0.000000000  0.000000000    0.000000000  0.000000000
                0.000000000  0.000000000    0.000000000  0.000000000    -0.178964900  -0.131880972    0.578429424  -0.773476224
                0.000000000  0.000000000    0.000000000  0.000000000    0.578429424  -0.773476224    -0.178964900  -0.131880972
1.909050    -0.191788194  -0.127256558    0.538081610  -0.799286566    0.000000000  0.000000000    0.000000000  0.000000000
                0.538081610  -0.799286566    -0.191788194  -0.127256558    0.000000000  0.000000000    0.000000000  0.000000000
                0.000000000  0.000000000    0.000000000  0.000000000    -0.191788194  -0.127256558    0.538081610  -0.799286566
                0.000000000  0.000000000    0.000000000  0.000000000    0.538081610  -0.799286566    -0.191788194  -0.127256558
2.009000    -0.204033759  -0.121414774    0.496792893  -0.822981739    0.000000000  0.000000000    0.000000000  0.000000000
                0.496792893  -0.822981739    -0.204033759  -0.121414774    0.000000000  0.000000000    0.000000000  0.000000000
                0.000000000  0.000000000    0.000000000  0.000000000    -0.204033759  -0.121414774    0.496792893  -0.822981739
                0.000000000  0.000000000    0.000000000  0.000000000    0.496792893  -0.822981739    -0.204033759  -0.121414774
2.108950    -0.215591859  -0.114427015    0.454672402  -0.844560557    0.000000000  0.000000000    0.000000000  0.000000000
                0.454672402  -0.844560557    -0.215591859  -0.114427015    0.000000000  0.000000000    0.000000000  0.000000000
                0.000000000  0.000000000    0.000000000  0.000000000    -0.215591859  -0.114427015    0.454672402  -0.844560557
                0.000000000  0.000000000    0.000000000  0.000000000    0.454672402  -0.844560557    -0.215591859  -0.114427015
2.208900    -0.226361515  -0.106373366    0.411823028  -0.864026578    0.000000000  0.000000000    0.000000000  0.000000000
                0.411823028  -0.864026578    -0.226361515  -0.106373366    0.000000000  0.000000000    0.000000000  0.000000000
                0.000000000  0.000000000    0.000000000  0.000000000    -0.226361515  -0.106373366    0.411823028  -0.864026578
                0.000000000  0.000000000    0.000000000  0.000000000    0.411823028  -0.864026578    -0.226361515  -0.106373366
2.308850    -0.236250930  -0.097341551    0.368341469  -0.881386951    0.000000000  0.000000000    0.000000000  0.000000000
                0.368341469  -0.881386951    -0.236250930  -0.097341551    0.000000000  0.000000000    0.000000000  0.000000000
                0.000000000  0.000000000    0.000000000  0.000000000    -0.236250930  -0.097341551    0.368341469  -0.881386951
                0.000000000  0.000000000    0.000000000  0.000000000    0.368341469  -0.881386951    -0.236250930  -0.097341551
2.408800    -0.245177807  -0.087425927    0.324318429  -0.896651344    0.000000000  0.000000000    0.000000000  0.000000000
                0.324318429  -0.896651344    -0.245177807  -0.087425927    0.000000000  0.000000000    0.000000000  0.000000000
                0.000000000  0.000000000    0.000000000  0.000000000    -0.245177807  -0.087425927    0.324318429  -0.896651344
                0.000000000  0.000000000    0.000000000  0.000000000    0.324318429  -0.896651344    -0.245177807  -0.087425927
2.508750    -0.253069566  -0.076726522    0.279838959  -0.909830947    0.000000000  0.000000000    0.000000000  0.000000000
                0.279838959  -0.909830947    -0.253069566  -0.076726522    0.000000000  0.000000000    0.000000000  0.000000000
                0.000000000  0.000000000    0.000000000  0.000000000    -0.253069566  -0.076726522    0.279838959  -0.909830947
                0.000000000  0.000000000    0.000000000  0.000000000    0.279838959  -0.909830947    -0.253069566  -0.076726522
2.608700    -0.259863481  -0.065348134    0.234982914  -0.920937587    0.000000000  0.000000000    0.000000000  0.000000000
                0.234982914  -0.920937587    -0.259863481  -0.065348134    0.000000000  0.000000000    0.000000000  0.000000000
                0.000000000  0.000000000    0.000000000  0.000000000    -0.259863481  -0.065348134    0.234982914  -0.920937587
                0.000000000  0.000000000    0.000000000  0.000000000    0.234982914  -0.920937587    -0.259863481  -0.065348134
2.708650    -0.265506764  -0.053399475    0.189825514  -0.929982941    0.000000000  0.000000000    0.000000000  0.000000000
                0.189825514  -0.929982941    -0.265506764  -0.053399475    0.000000000  0.000000000    0.000000000  0.000000000
                0.000000000  0.000000000    0.000000000  0.000000000    -0.265506764  -0.053399475    0.189825514  -0.929982941
                0.000000000  0.000000000    0.000000000  0.000000000    0.189825514  -0.929982941    -0.265506764  -0.053399475
2.808600    -0.269956594  -0.040992382    0.144437990  -0.936977873    0.000000000  0.000000000    0.000000000  0.000000000
                0.144437990  -0.936977873    -0.269956594  -0.040992382    0.000000000  0.000000000    0.000000000  0.000000000
                0.000000000  0.000000000    0.000000000  0.000000000    -0.269956594  -0.040992382    0.144437990  -0.936977873
                0.000000000  0.000000000    0.000000000  0.000000000    0.144437990  -0.936977873    -0.269956594  -0.040992382
2.908550    -0.273180125  -0.028241064    0.098888302  -0.941931887    0.000000000  0.000000000    0.000000000  0.000000000
                0.098888302  -0.941931887    -0.273180125  -0.028241064    0.000000000  0.000000000    0.000000000  0.000000000
                0.000000000  0.000000000    0.000000000  0.000000000    -0.273180125  -0.028241064    0.098888302  -0.941931887
                0.000000000  0.000000000    0.000000000  0.000000000    0.098888302  -0.941931887    -0.273180125  -0.028241064
3.008500    -0.275154461  -0.015261398    0.053241896  -0.944852706    0.000000000  0.000000000    0.000000000  0.000000000
                0.053241896  -0.944852706    -0.275154461  -0.015261398    0.000000000  0.000000000    0.000000000  0.000000000
                0.000000000  0.000000000    0.000000000  0.000000000    -0.275154461  -0.015261398    0.053241896  -0.944852706
                0.000000000  0.000000000    0.000000000  0.000000000    0.053241896  -0.944852706    -0.275154461  -0.015261398
3.108450    -0.275866634  -0.002170258    0.007562517  -0.945745979    0.000000000  0.000000000    0.000000000  0.000000000
                0.007562517  -0.945745979    -0.275866634  -0.002170258    0.000000000  0.000000000    0.000000000  0.000000000
                0.000000000  0.000000000    0.000000000  0.000000000    -0.275866634  -0.002170258    0.007562517  -0.945745979
                0.000000000  0.000000000    0.000000000  0.000000000    0.007562517  -0.945745979    -0.275866634  -0.002170258
3.208400    -0.275313570  0.010915132    -0.038086974  -0.944615106    0.000000000  0.000000000    0.000000000  0.000000000
                -0.038086974  -0.944615106    -0.275313570  0.010915132    0.000000000  0.000000000    0.000000000  0.000000000
                0.000000000  0.000000000    0.000000000  0.000000000    -0.275313570  0.010915132    -0.038086974  -0.944615106
                0.000000000  0.000000000    0.000000000  0.000000000    -0.038086974  -0.944615106    -0.275313570  0.010915132
3.308350    -0.273502059  0.023877839    -0.083643762  -0.941461199    0.000000000  0.000000000    0.000000000  0.000000000
                -0.083643762  -0.941461199    -0.273502059  0.023877839    0.000000000  0.000000000    0.000000000  0.000000000
                0.000000000  0.000000000    0.000000000  0.000000000    -0.273502059  0.023877839    -0.083643762  -0.941461199
                0.000000000  0.000000000    0.000000000  0.000000000    -0.083643762  -0.941461199    -0.273502059  0.023877839
3.408300    -0.270448718  0.036601847    -0.129044252  -0.936283165    0.000000000  0.000000000    0.000000000  0.000000000
                -0.129044252  -0.936283165    -0.270448718  0.036601847    0.000000000  0.000000000    0.000000000  0.000000000
                0.000000000  0.000000000    0.000000000  0.000000000    -0.270448718  0.036601847    -0.129044252  -0.936283165
                0.000000000  0.000000000    0.000000000  0.000000000    -0.129044252  -0.936283165    -0.270448718  0.036601847
3.508250    -0.266179967  0.048972710    -0.174223259  -0.929077916    0.000000000  0.000000000    0.000000000  0.000000000
                -0.174223259  -0.929077916    -0.266179967  0.048972710    0.000000000  0.000000000    0.000000000  0.000000000
                0.000000000  0.000000000    0.000000000  0.000000000    -0.266179967  0.048972710    -0.174223259  -0.929077916
                0.000000000  0.000000000    0.000000000  0.000000000    -0.174223259  -0.929077916    -0.266179967  0.048972710
3.608200    -0.260731983  0.060878205    -0.219113228  -0.919840695    0.000000000  0.000000000    0.000000000  0.000000000
                -0.219113228  -0.919840695    -0.260731983  0.060878205    0.000000000  0.000000000    0.000000000  0.000000000
                0.000000000  0.000000000    0.000000000  0.000000000    -0.260731983  0.060878205    -0.219113228  -0.919840695
                0.000000000  0.000000000    0.000000000  0.000000000    -0.219113228  -0.919840695    -0.260731983  0.060878205
3.708150    -0.254150658  0.072209026    -0.263643512  -0.908565535    0.000000000  0.000000000    0.000000000  0.000000000
                -0.263643512  -0.908565535    -0.254150658  0.072209026    0.000000000  0.000000000    0.000000000  0.000000000
                0.000000000  0.000000000    0.000000000  0.000000000    -0.254150658  0.072209026    -0.263643512  -0.908565535
                0.000000000  0.000000000    0.000000000  0.000000000    -0.263643512  -0.908565535    -0.254150658  0.072209026
3.808100    -0.246491523  0.082859516    -0.307739693  -0.895245822    0.000000000  0.000000000    0.000000000  0.000000000
                -0.307739693  -0.895245822    -0.246491523  0.082859516    0.000000000  0.000000000    0.000000000  0.000000000
                0.000000000  0.000000000    0.000000000  0.000000000    -0.246491523  0.082859516    -0.307739693  -0.895245822
