! Generated test file
# GHz S RI R 50
0.1000  0.09997807  -0.00209424  0.00023274  -0.00032896  0.00000000  -0.00300000  0.00000000  0.00000000  0.00023274  -0.00032896  0.09997807  -0.00209424  0.00000000  0.00000000  0.00000000  -0.00300000  0.00000000  -0.00300000  0.00000000  0.00000000  0.09997807  -0.00209424  0.00023274  -0.00032896  0.00000000  0.00000000  0.00000000  -0.00300000  0.00023274  -0.00032896  0.09997807  -0.00209424
0.2000  0.09991228  -0.00418757  0.00035870  -0.00052074  0.00000000  -0.00300000  0.00000000  0.00000000  0.00035870  -0.00052074  0.09991228  -0.00418757  0.00000000  0.00000000  0.00000000  -0.00300000  0.00000000  -0.00300000  0.00000000  0.00000000  0.09991228  -0.00418757  0.00035870  -0.00052074  0.00000000  0.00000000  0.00000000  -0.00300000  0.00035870  -0.00052074  0.09991228  -0.00418757
0.3000  0.09980267  -0.00627905  0.00045831  -0.00068358  0.00000000  -0.00300000  0.00000000  0.00000000  0.00045831  -0.00068358  0.09980267  -0.00627905  0.00000000  0.00000000  0.00000000  -0.00300000  0.00000000  -0.00300000  0.00000000  0.00000000  0.09980267  -0.00627905  0.00045831  -0.00068358  0.00000000  0.00000000  0.00000000  -0.00300000  0.00045831  -0.00068358  0.09980267  -0.00627905
0.4000  0.09964929  -0.00836778  0.00054215  -0.00083102  0.00000000  -0.00300000  0.00000000  0.00000000  0.00054215  -0.00083102  0.09964929  -0.00836778  0.00000000  0.00000000  0.00000000  -0.00300000  0.00000000  -0.00300000  0.00000000  0.00000000  0.09964929  -0.00836778  0.00054215  -0.00083102  0.00000000  0.00000000  0.00000000  -0.00300000  0.00054215  -0.00083102  0.09964929  -0.00836778
0.5000  0.09945219  -0.01045285  0.00061465  -0.00096853  0.00000000  -0.00300000  0.00000000  0.00000000  0.00061465  -0.00096853  0.09945219  -0.01045285  0.00000000  0.00000000  0.00000000  -0.00300000  0.00000000  -0.00300000  0.00000000  0.00000000  0.09945219  -0.01045285  0.00061465  -0.00096853  0.00000000  0.00000000  0.00000000  -0.00300000  0.00061465  -0.00096853  0.09945219  -0.01045285
0.6000  0.09921147  -0.01253332  0.00067823  -0.00109900  0.00000000  -0.00300000  0.00000000  0.00000000  0.00067823  -0.00109900  0.09921147  -0.01253332  0.00000000  0.00000000  0.00000000  -0.00300000  0.00000000  -0.00300000  0.00000000  0.00000000  0.09921147  -0.01253332  0.00067823  -0.00109900  0.00000000  0.00000000  0.00000000  -0.00300000  0.00067823  -0.00109900  0.09921147  -0.01253332
0.7000  0.09892723  -0.01460830  0.00073438  -0.00122415  0.00000000  -0.00300000  0.00000000  0.00000000  0.00073438  -0.00122415  0.09892723  -0.01460830  0.00000000  0.00000000  0.00000000  -0.00300000  0.00000000  -0.00300000  0.00000000  0.00000000  0.09892723  -0.01460830  0.00073438  -0.00122415  0.00000000  0.00000000  0.00000000  -0.00300000  0.00073438  -0.00122415  0.09892723  -0.01460830
0.8000  0.09859960  -0.01667687  0.00078413  -0.00134511  0.00000000  -0.00300000  0.00000000  0.00000000  0.00078413  -0.00134511  0.09859960  -0.01667687  0.00000000  0.00000000  0.00000000  -0.00300000  0.00000000  -0.00300000  0.00000000  0.00000000  0.09859960  -0.01667687  0.00078413  -0.00134511  0.00000000  0.00000000  0.00000000  -0.00300000  0.00078413  -0.00134511  0.09859960  -0.01667687
0.9000  0.09822873  -0.01873813  0.00082820  -0.00146265  0.00000000  -0.00300000  0.00000000  0.00000000  0.00082820  -0.00146265  0.09822873  -0.01873813  0.00000000  0.00000000  0.00000000  -0.00300000  0.00000000  -0.00300000  0.00000000  0.00000000  0.09822873  -0.01873813  0.00082820  -0.00146265  0.00000000  0.00000000  0.00000000  -0.00300000  0.00082820  -0.00146265  0.09822873  -0.01873813
1.0000  0.09781476  -0.02079117  0.00086716  -0.00157735  0.00000000  -0.00300000  0.00000000  0.00000000  0.00086716  -0.00157735  0.09781476  -0.02079117  0.00000000  0.00000000  0.00000000  -0.00300000  0.00000000  -0.00300000  0.00000000  0.00000000  0.09781476  -0.02079117  0.00086716  -0.00157735  0.00000000  0.00000000  0.00000000  -0.00300000  0.00086716  -0.00157735  0.09781476  -0.02079117
1.1000  0.09735789  -0.02283509  0.00090142  -0.00168962  0.00000000  -0.00300000  0.00000000  0.00000000  0.00090142  -0.00168962  0.09735789  -0.02283509  0.00000000  0.00000000  0.00000000  -0.00300000  0.00000000  -0.00300000  0.00000000  0.00000000  0.09735789  -0.02283509  0.00090142  -0.00168962  0.00000000  0.00000000  0.00000000  -0.00300000  0.00090142  -0.00168962  0.09735789  -0.02283509
1.2000  0.09685832  -0.02486899  0.00093133  -0.00179978  0.00000000  -0.00300000  0.00000000  0.00000000  0.00093133  -0.00179978  0.09685832  -0.02486899  0.00000000  0.00000000  0.00000000  -0.00300000  0.00000000  -0.00300000  0.00000000  0.00000000  0.09685832  -0.02486899  0.00093133  -0.00179978  0.00000000  0.00000000  0.00000000  -0.00300000  0.00093133  -0.00179978  0.09685832  -0.02486899
1.3000  0.09631626  -0.02689198  0.00095716  -0.00190808  0.00000000  -0.00300000  0.00000000  0.00000000  0.00095716  -0.00190808  0.09631626  -0.02689198  0.00000000  0.00000000  0.00000000  -0.00300000  0.00000000  -0.00300000  0.00000000  0.00000000  0.09631626  -0.02689198  0.00095716  -0.00190808  0.00000000  0.00000000  0.00000000  -0.00300000  0.00095716  -0.00190808  0.09631626  -0.02689198
1.4000  0.09573195  -0.02890318  0.00097916  -0.00201470  0.00000000  -0.00300000  0.00000000  0.00000000  0.00097916  -0.00201470  0.09573195  -0.02890318  0.00000000  0.00000000  0.00000000  -0.00300000  0.00000000  -0.00300000  0.00000000  0.00000000  0.09573195  -0.02890318  0.00097916  -0.00201470  0.00000000  0.00000000  0.00000000  -0.00300000  0.00097916  -0.00201470  0.09573195  -0.02890318
1.5000  0.09510565  -0.03090170  0.00099751  -0.00211981  0.00000000  -0.00300000  0.00000000  0.00000000  0.00099751  -0.00211981  0.09510565  -0.03090170  0.00000000  0.00000000  0.00000000  -0.00300000  0.00000000  -0.00300000  0.00000000  0.00000000  0.09510565  -0.03090170  0.00099751  -0.00211981  0.00000000  0.00000000  0.00000000  -0.00300000  0.00099751  -0.00211981  0.09510565  -0.03090170
1.6000  0.09443764  -0.03288666  0.00101238  -0.00222353  0.00000000  -0.00300000  0.00000000  0.00000000  0.00101238  -0.00222353  0.09443764  -0.03288666  0.00000000  0.00000000  0.00000000  -0.00300000  0.00000000  -0.00300000  0.00000000  0.00000000  0.09443764  -0.03288666  0.00101238  -0.00222353  0.00000000  0.00000000  0.00000000  -0.00300000  0.00101238  -0.00222353  0.09443764  -0.03288666
1.7000  0.09372820  -0.03485720  0.00102393  -0.00232595  0.00000000  -0.00300000  0.00000000  0.00000000  0.00102393  -0.00232595  0.09372820  -0.03485720  0.00000000  0.00000000  0.00000000  -0.00300000  0.00000000  -0.00300000  0.00000000  0.00000000  0.09372820  -0.03485720  0.00102393  -0.00232595  0.00000000  0.00000000  0.00000000  -0.00300000  0.00102393  -0.00232595  0.09372820  -0.03485720
1.8000  0.09297765  -0.03681246  0.00103227  -0.00242715  0.00000000  -0.00300000  0.00000000  0.00000000  0.00103227  -0.00242715  0.09297765  -0.03681246  0.00000000  0.00000000  0.00000000  -0.00300000  0.00000000  -0.00300000  0.00000000  0.00000000  0.09297765  -0.03681246  0.00103227  -0.00242715  0.00000000  0.00000000  0.00000000  -0.00300000  0.00103227  -0.00242715  0.09297765  -0.03681246
1.9000  0.09218632  -0.03875156  0.00103751  -0.00252720  0.00000000  -0.00300000  0.00000000  0.00000000  0.00103751  -0.00252720  0.09218632  -0.03875156  0.00000000  0.00000000  0.00000000  -0.00300000  0.00000000  -0.00300000  0.00000000  0.00000000  0.09218632  -0.03875156  0.00103751  -0.00252720  0.00000000  0.00000000  0.00000000  -0.00300000  0.00103751  -0.00252720  0.09218632  -0.03875156
2.0000  0.09135455  -0.04067366  0.00103977  -0.00262616  0.00000000  -0.00300000  0.00000000  0.00000000  0.00103977  -0.00262616  0.09135455  -0.04067366  0.00000000  0.00000000  0.00000000  -0.00300000  0.00000000  -0.00300000  0.00000000  0.00000000  0.09135455  -0.04067366  0.00103977  -0.00262616  0.00000000  0.00000000  0.00000000  -0.00300000  0.00103977  -0.00262616  0.09135455  -0.04067366
2.1000  0.09048271  -0.04257793  0.00103912  -0.00272405  0.00000000  -0.00300000  0.00000000  0.00000000  0.00103912  -0.00272405  0.09048271  -0.04257793  0.00000000  0.00000000  0.00000000  -0.00300000  0.00000000  -0.00300000  0.00000000  0.00000000  0.09048271  -0.04257793  0.00103912  -0.00272405  0.00000000  0.00000000  0.00000000  -0.00300000  0.00103912  -0.00272405  0.09048271  -0.04257793
2.2000  0.08957118  -0.04446352  0.00103566  -0.00282091  0.00000000  -0.00300000  0.00000000  0.00000000  0.00103566  -0.00282091  0.08957118  -0.04446352  0.00000000  0.00000000  0.00000000  -0.00300000  0.00000000  -0.00300000  0.00000000  0.00000000  0.08957118  -0.04446352  0.00103566  -0.00282091  0.00000000  0.00000000  0.00000000  -0.00300000  0.00103566  -0.00282091  0.08957118  -0.04446352
2.3000  0.08862036  -0.04632960  0.00102945  -0.00291678  0.00000000  -0.00300000  0.00000000  0.00000000  0.00102945  -0.00291678  0.08862036  -0.04632960  0.00000000  0.00000000  0.00000000  -0.00300000  0.00000000  -0.00300000  0.00000000  0.00000000  0.08862036  -0.04632960  0.00102945  -0.00291678  0.00000000  0.00000000  0.00000000  -0.00300000  0.00102945  -0.00291678  0.08862036  -0.04632960
2.4000  0.08763067  -0.04817537  0.00102056  -0.00301165  0.00000000  -0.00300000  0.00000000  0.00000000  0.00102056  -0.00301165  0.08763067  -0.04817537  0.00000000  0.00000000  0.00000000  -0.00300000  0.00000000  -0.00300000  0.00000000  0.00000000  0.08763067  -0.04817537  0.00102056  -0.00301165  0.00000000  0.00000000  0.00000000  -0.00300000  0.00102056  -0.00301165  0.08763067  -0.04817537
2.5000  0.08660254  -0.05000000  0.00100906  -0.00310556  0.00000000  -0.00300000  0.00000000  0.00000000  0.00100906  -0.00310556  0.08660254  -0.05000000  0.00000000  0.00000000  0.00000000  -0.00300000  0.00000000  -0.00300000  0.00000000  0.00000000  0.08660254  -0.05000000  0.00100906  -0.00310556  0.00000000  0.00000000  0.00000000  -0.00300000  0.00100906  -0.00310556  0.08660254  -0.05000000
2.6000  0.08553643  -0.05180270  0.00099500  -0.00319850  0.00000000  -0.00300000  0.00000000  0.00000000  0.00099500  -0.00319850  0.08553643  -0.05180270  0.00000000  0.00000000  0.00000000  -0.00300000  0.00000000  -0.00300000  0.00000000  0.00000000  0.08553643  -0.05180270  0.00099500  -0.00319850  0.00000000  0.00000000  0.00000000  -0.00300000  0.00099500  -0.00319850  0.08553643  -0.05180270
2.7000  0.08443279  -0.05358268  0.00097844  -0.00329049  0.00000000  -0.00300000  0.00000000  0.00000000  0.00097844  -0.00329049  0.08443279  -0.05358268  0.00000000  0.00000000  0.00000000  -0.00300000  0.00000000  -0.00300000  0.00000000  0.00000000  0.08443279  -0.05358268  0.00097844  -0.00329049  0.00000000  0.00000000  0.00000000  -0.00300000  0.00097844  -0.00329049  0.08443279  -0.05358268
2.8000  0.08329212  -0.05533915  0.00095943  -0.00338153  0.00000000  -0.00300000  0.00000000  0.00000000  0.00095943  -0.00338153  0.08329212  -0.05533915  0.00000000  0.00000000  0.00000000  -0.00300000  0.00000000  -0.00300000  0.00000000  0.00000000  0.08329212  -0.05533915  0.00095943  -0.00338153  0.00000000  0.00000000  0.00000000  -0.00300000  0.00095943  -0.00338153  0.08329212  -0.05533915
2.9000  0.08211492  -0.05707136  0.00093801  -0.00347160  0.00000000  -0.00300000  0.00000000  0.00000000  0.00093801  -0.00347160  0.08211492  -0.05707136  0.00000000  0.00000000  0.00000000  -0.00300000  0.00000000  -0.00300000  0.00000000  0.00000000  0.08211492  -0.05707136  0.00093801  -0.00347160  0.00000000  0.00000000  0.00000000  -0.00300000  0.00093801  -0.00347160  0.08211492  -0.05707136
3.0000  0.08090170  -0.05877853  0.00091424  -0.00356072  0.00000000  -0.00300000  0.00000000  0.00000000  0.00091424  -0.00356072  0.08090170  -0.05877853  0.00000000  0.00000000  0.00000000  -0.00300000  0.00000000  -0.00300000  0.00000000  0.00000000  0.08090170  -0.05877853  0.00091424  -0.00356072  0.00000000  0.00000000  0.00000000  -0.00300000  0.00091424  -0.00356072  0.08090170  -0.05877853
3.1000  0.07965299  -0.06045991  0.00088815  -0.00364888  0.00000000  -0.00300000  0.00000000  0.00000000  0.00088815  -0.00364888  0.07965299  -0.06045991  0.00000000  0.00000000  0.00000000  -0.00300000  0.00000000  -0.00300000  0.00000000  0.00000000  0.07965299  -0.06045991  0.00088815  -0.00364888  0.00000000  0.00000000  0.00000000  -0.00300000  0.00088815  -0.00364888  0.07965299  -0.06045991
3.2000  0.07836935  -0.06211478  0.00085979  -0.00373606  0.00000000  -0.00300000  0.00000000  0.00000000  0.00085979  -0.00373606  0.07836935  -0.06211478  0.00000000  0.00000000  0.00000000  -0.00300000  0.00000000  -0.00300000  0.00000000  0.00000000  0.07836935  -0.06211478  0.00085979  -0.00373606  0.00000000  0.00000000  0.00000000  -0.00300000  0.00085979  -0.00373606  0.07836935  -0.06211478
3.3000  0.07705132  -0.06374240  0.00082920  -0.00382226  0.00000000  -0.00300000  0.00000000  0.00000000  0.00082920  -0.00382226  0.07705132  -0.06374240  0.00000000  0.00000000  0.00000000  -0.00300000  0.00000000  -0.00300000  0.00000000  0.00000000  0.07705132  -0.06374240  0.00082920  -0.00382226  0.00000000  0.00000000  0.00000000  -0.00300000  0.00082920  -0.00382226  0.07705132  -0.06374240
3.4000  0.07569951  -0.06534206  0.00079640  -0.00390747  0.00000000  -0.00300000  0.00000000  0.00000000  0.00079640  -0.00390747  0.07569951  -0.06534206  0.00000000  0.00000000  0.00000000  -0.00300000  0.00000000  -0.00300000  0.00000000  0.00000000  0.07569951  -0.06534206  0.00079640  -0.00390747  0.00000000  0.00000000  0.00000000  -0.00300000  0.00079640  -0.00390747  0.07569951  -0.06534206
3.5000  0.07431448  -0.06691306  0.00076145  -0.00399168  0.00000000  -0.00300000  0.00000000  0.00000000  0.00076145  -0.00399168  0.07431448  -0.06691306  0.00000000  0.00000000  0.00000000  -0.00300000  0.00000000  -0.00300000  0.00000000  0.00000000  0.07431448  -0.06691306  0.00076145  -0.00399168  0.00000000  0.00000000  0.00000000  -0.00300000  0.00076145  -0.00399168  0.07431448  -0.06691306
3.6000  0.07289686  -0.06845471  0.00072438  -0.00407487  0.00000000  -0.00300000  0.00000000  0.00000000  0.00072438  -0.00407487  0.07289686  -0.06845471  0.00000000  0.00000000  0.00000000  -0.00300000  0.00000000  -0.00300000  0.00000000  0.00000000  0.07289686  -0.06845471  0.00072438  -0.00407487  0.00000000  0.00000000  0.00000000  -0.00300000  0.00072438  -0.00407487  0.07289686  -0.06845471
3.7000  0.07144727  -0.06996633  0.00068521  -0.00415702  0.00000000  -0.00300000  0.00000000  0.00000000  0.00068521  -0.00415702  0.07144727  -0.06996633  0.00000000  0.00000000  0.00000000  -0.00300000  0.00000000  -0.00300000  0.00000000  0.00000000  0.07144727  -0.06996633  0.00068521  -0.00415702  0.00000000  0.00000000  0.00000000  -0.00300000  0.00068521  -0.00415702  0.07144727  -0.06996633
3.8000  0.06996633  -0.07144727  0.00064399  -0.00423814  0.00000000  -0.00300000  0.00000000  0.00000000  0.00064399  -0.00423814  0.06996633  -0.07144727  0.00000000  0.00000000  0.00000000  -0.00300000  0.00000000  -0.00300000  0.00000000  0.00000000  0.06996633  -0.07144727  0.00064399  -0.00423814  0.00000000  0.00000000  0.00000000  -0.00300000  0.00064399  -0.00423814  0.06996633  -0.07144727
3.9000  0.06845471  -0.07289686  0.00060074  -0.00431819  0.00000000  -0.00300000  0.00000000  0.00000000  0.00060074  -0.00431819  0.06845471  -0.07289686  0.00000000  0.00000000  0.00000000  -0.00300000  0.00000000  -0.00300000  0.00000000  0.00000000  0.06845471  -0.07289686  0.00060074  -0.00431819  0.00000000  0.00000000  0.00000000  -0.00300000  0.00060074  -0.00431819  0.06845471  -0.07289686
4.0000  0.06691306  -0.07431448  0.00055549  -0.00439717  0.00000000  -0.00300000  0.00000000  0.00000000  0.00055549  -0.00439717  0.06691306  -0.07431448  0.00000000  0.00000000  0.00000000  -0.00300000  0.00000000  -0.00300000  0.00000000  0.00000000  0.06691306  -0.07431448  0.00055549  -0.00439717  0.00000000  0.00000000  0.00000000  -0.00300000  0.00055549  -0.00439717  0.06691306  -0.07431448
4.1000  0.06534206  -0.07569951  0.00050829  -0.00447506  0.00000000  -0.00300000  0.00000000  0.00000000  0.00050829  -0.00447506  0.06534206  -0.07569951  0.00000000  0.00000000  0.00000000  -0.00300000  0.00000000  -0.00300000  0.00000000  0.00000000  0.06534206  -0.07569951  0.00050829  -0.00447506  0.00000000  0.00000000  0.00000000  -0.00300000  0.00050829  -0.00447506  0.06534206  -0.07569951
4.2000  0.06374240  -0.07705132  0.00045915  -0.00455183  0.00000000  -0.00300000  0.00000000  0.00000000  0.00045915  -0.00455183  0.06374240  -0.07705132  0.00000000  0.00000000  0.00000000  -0.00300000  0.00000000  -0.00300000  0.00000000  0.00000000  0.06374240  -0.07705132  0.00045915  -0.00455183  0.00000000  0.00000000  0.00000000  -0.00300000  0.00045915  -0.00455183  0.06374240  -0.07705132
4.3000  0.06211478  -0.07836935  0.00040811  -0.00462748  0.00000000  -0.00300000  0.00000000  0.00000000  0.00040811  -0.00462748  0.06211478  -0.07836935  0.00000000  0.00000000  0.00000000  -0.00300000  0.00000000  -0.00300000  0.00000000  0.00000000  0.06211478  -0.07836935  0.00040811  -0.00462748  0.00000000  0.00000000  0.00000000  -0.00300000  0.00040811  -0.00462748  0.06211478  -0.07836935
4.4000  0.06045991  -0.07965299  0.00035519  -0.00470198  0.00000000  -0.00300000  0.00000000  0.00000000  0.00035519  -0.00470198  0.06045991  -0.07965299  0.00000000  0.00000000  0.00000000  -0.00300000  0.00000000  -0.00300000  0.00000000  0.00000000  0.06045991  -0.07965299  0.00035519  -0.00470198  0.00000000  0.00000000  0.00000000  -0.00300000  0.00035519  -0.00470198  0.06045991  -0.07965299
4.5000  0.05877853  -0.08090170  0.00030044  -0.00477532  0.00000000  -0.00300000  0.00000000  0.00000000  0.00030044  -0.00477532  0.05877853  -0.08090170  0.00000000  0.00000000  0.00000000  -0.00300000  0.00000000  -0.00300000  0.00000000  0.00000000  0.05877853  -0.08090170  0.00030044  -0.00477532  0.00000000  0.00000000  0.00000000  -0.00300000  0.00030044  -0.00477532  0.05877853  -0.08090170
4.6000  0.05707136  -0.08211492  0.00024387  -0.00484748  0.00000000  -0.00300000  0.00000000  0.00000000  0.00024387  -0.00484748  0.05707136  -0.08211492  0.00000000  0.00000000  0.00000000  -0.00300000  0.00000000  -0.00300000  0.00000000  0.00000000  0.05707136  -0.08211492  0.00024387  -0.00484748  0.00000000  0.00000000  0.00000000  -0.00300000  0.00024387  -0.00484748  0.05707136  -0.08211492
4.7000  0.05533915  -0.08329212  0.00018551  -0.00491844  0.00000000  -0.00300000  0.00000000  0.00000000  0.00018551  -0.00491844  0.05533915  -0.08329212  0.00000000  0.00000000  0.00000000  -0.00300000  0.00000000  -0.00300000  0.00000000  0.00000000  0.05533915  -0.08329212  0.00018551  -0.00491844  0.00000000  0.00000000  0.00000000  -0.00300000  0.00018551  -0.00491844  0.05533915  -0.08329212
4.8000  0.05358268  -0.08443279  0.00012539  -0.00498818  0.00000000  -0.00300000  0.00000000  0.00000000  0.00012539  -0.00498818  0.05358268  -0.08443279  0.00000000  0.00000000  0.00000000  -0.00300000  0.00000000  -0.00300000  0.00000000  0.00000000  0.05358268  -0.08443279  0.00012539  -0.00498818  0.00000000  0.00000000  0.00000000  -0.00300000  0.00012539  -0.00498818  0.05358268  -0.08443279
4.9000  0.05180270  -0.08553643  0.00006355  -0.00505668  0.00000000  -0.00300000  0.00000000  0.00000000  0.00006355  -0.00505668  0.05180270  -0.08553643  0.00000000  0.00000000  0.00000000  -0.00300000  0.00000000  -0.00300000  0.00000000  0.00000000  0.05180270  -0.08553643  0.00006355  -0.00505668  0.00000000  0.00000000  0.00000000  -0.00300000  0.00006355  -0.00505668  0.05180270  -0.08553643
