! Generated test file
# GHz S RI R 50
0.1000  0.09997807  -0.00209424  0.00086250  -0.00268316  0.00000000  -0.00300000  0.00000000  0.00000000  0.00086250  -0.00268316  0.09997807  -0.00209424  0.00000000  0.00000000  0.00000000  -0.00300000  0.00000000  -0.00300000  0.00000000  0.00000000  0.09997807  -0.00209424  0.00086250  -0.00268316  0.00000000  0.00000000  0.00000000  -0.00300000  0.00086250  -0.00268316  0.09997807  -0.00209424
0.2000  0.09991228  -0.00418757  0.00125043  -0.00393233  0.00000000  -0.00300000  0.00000000  0.00000000  0.00125043  -0.00393233  0.09991228  -0.00418757  0.00000000  0.00000000  0.00000000  -0.00300000  0.00000000  -0.00300000  0.00000000  0.00000000  0.09991228  -0.00418757  0.00125043  -0.00393233  0.00000000  0.00000000  0.00000000  -0.00300000  0.00125043  -0.00393233  0.09991228  -0.00418757
0.3000  0.09980267  -0.00627905  0.00154738  -0.00491962  0.00000000  -0.00300000  0.00000000  0.00000000  0.00154738  -0.00491962  0.09980267  -0.00627905  0.00000000  0.00000000  0.00000000  -0.00300000  0.00000000  -0.00300000  0.00000000  0.00000000  0.09980267  -0.00627905  0.00154738  -0.00491962  0.00000000  0.00000000  0.00000000  -0.00300000  0.00154738  -0.00491962  0.09980267  -0.00627905
0.4000  0.09964929  -0.00836778  0.00179453  -0.00576866  0.00000000  -0.00300000  0.00000000  0.00000000  0.00179453  -0.00576866  0.09964929  -0.00836778  0.00000000  0.00000000  0.00000000  -0.00300000  0.00000000  -0.00300000  0.00000000  0.00000000  0.09964929  -0.00836778  0.00179453  -0.00576866  0.00000000  0.00000000  0.00000000  -0.00300000  0.00179453  -0.00576866  0.09964929  -0.00836778
0.5000  0.09945219  -0.01045285  0.00200835  -0.00652826  0.00000000  -0.00300000  0.00000000  0.00000000  0.00200835  -0.00652826  0.09945219  -0.01045285  0.00000000  0.00000000  0.00000000  -0.00300000  0.00000000  -0.00300000  0.00000000  0.00000000  0.09945219  -0.01045285  0.00200835  -0.00652826  0.00000000  0.00000000  0.00000000  -0.00300000  0.00200835  -0.00652826  0.09945219  -0.01045285
0.6000  0.09921147  -0.01253332  0.00219751  -0.00722378  0.00000000  -0.00300000  0.00000000  0.00000000  0.00219751  -0.00722378  0.09921147  -0.01253332  0.00000000  0.00000000  0.00000000  -0.00300000  0.00000000  -0.00300000  0.00000000  0.00000000  0.09921147  -0.01253332  0.00219751  -0.00722378  0.00000000  0.00000000  0.00000000  -0.00300000  0.00219751  -0.00722378  0.09921147  -0.01253332
0.7000  0.09892723  -0.01460830  0.00236723  -0.00787042  0.00000000  -0.00300000  0.00000000  0.00000000  0.00236723  -0.00787042  0.09892723  -0.01460830  0.00000000  0.00000000  0.00000000  -0.00300000  0.00000000  -0.00300000  0.00000000  0.00000000  0.09892723  -0.01460830  0.00236723  -0.00787042  0.00000000  0.00000000  0.00000000  -0.00300000  0.00236723  -0.00787042  0.09892723  -0.01460830
0.8000  0.09859960  -0.01667687  0.00252100  -0.00847816  0.00000000  -0.00300000  0.00000000  0.00000000  0.00252100  -0.00847816  0.09859960  -0.01667687  0.00000000  0.00000000  0.00000000  -0.00300000  0.00000000  -0.00300000  0.00000000  0.00000000  0.09859960  -0.01667687  0.00252100  -0.00847816  0.00000000  0.00000000  0.00000000  -0.00300000  0.00252100  -0.00847816  0.09859960  -0.01667687
0.9000  0.09822873  -0.01873813  0.00266129  -0.00905396  0.00000000  -0.00300000  0.00000000  0.00000000  0.00266129  -0.00905396  0.09822873  -0.01873813  0.00000000  0.00000000  0.00000000  -0.00300000  0.00000000  -0.00300000  0.00000000  0.00000000  0.09822873  -0.01873813  0.00266129  -0.00905396  0.00000000  0.00000000  0.00000000  -0.00300000  0.00266129  -0.00905396  0.09822873  -0.01873813
1.0000  0.09781476  -0.02079117  0.00278991  -0.00960294  0.00000000  -0.00300000  0.00000000  0.00000000  0.00278991  -0.00960294  0.09781476  -0.02079117  0.00000000  0.00000000  0.00000000  -0.00300000  0.00000000  -0.00300000  0.00000000  0.00000000  0.09781476  -0.02079117  0.00278991  -0.00960294  0.00000000  0.00000000  0.00000000  -0.00300000  0.00278991  -0.00960294  0.09781476  -0.02079117
1.1000  0.09735789  -0.02283509  0.00290825  -0.01012894  0.00000000  -0.00300000  0.00000000  0.00000000  0.00290825  -0.01012894  0.09735789  -0.02283509  0.00000000  0.00000000  0.00000000  -0.00300000  0.00000000  -0.00300000  0.00000000  0.00000000  0.09735789  -0.02283509  0.00290825  -0.01012894  0.00000000  0.00000000  0.00000000  -0.00300000  0.00290825  -0.01012894  0.09735789  -0.02283509
1.2000  0.09685832  -0.02486899  0.00301742  -0.01063499  0.00000000  -0.00300000  0.00000000  0.00000000  0.00301742  -0.01063499  0.09685832  -0.02486899  0.00000000  0.00000000  0.00000000  -0.00300000  0.00000000  -0.00300000  0.00000000  0.00000000  0.09685832  -0.02486899  0.00301742  -0.01063499  0.00000000  0.00000000  0.00000000  -0.00300000  0.00301742  -0.01063499  0.09685832  -0.02486899
1.3000  0.09631626  -0.02689198  0.00311830  -0.01112349  0.00000000  -0.00300000  0.00000000  0.00000000  0.00311830  -0.01112349  0.09631626  -0.02689198  0.00000000  0.00000000  0.00000000  -0.00300000  0.00000000  -0.00300000  0.00000000  0.00000000  0.09631626  -0.02689198  0.00311830  -0.01112349  0.00000000  0.00000000  0.00000000  -0.00300000  0.00311830  -0.01112349  0.09631626  -0.02689198
1.4000  0.09573195  -0.02890318  0.00321161  -0.01159639  0.00000000  -0.00300000  0.00000000  0.00000000  0.00321161  -0.01159639  0.09573195  -0.02890318  0.00000000  0.00000000  0.00000000  -0.00300000  0.00000000  -0.00300000  0.00000000  0.00000000  0.09573195  -0.02890318  0.00321161  -0.01159639  0.00000000  0.00000000  0.00000000  -0.00300000  0.00321161  -0.01159639  0.09573195  -0.02890318
1.5000  0.09510565  -0.03090170  0.00329796  -0.01205531  0.00000000  -0.00300000  0.00000000  0.00000000  0.00329796  -0.01205531  0.09510565  -0.03090170  0.00000000  0.00000000  0.00000000  -0.00300000  0.00000000  -0.00300000  0.00000000  0.00000000  0.09510565  -0.03090170  0.00329796  -0.01205531  0.00000000  0.00000000  0.00000000  -0.00300000  0.00329796  -0.01205531  0.09510565  -0.03090170
1.6000  0.09443764  -0.03288666  0.00337787  -0.01250158  0.00000000  -0.00300000  0.00000000  0.00000000  0.00337787  -0.01250158  0.09443764  -0.03288666  0.00000000  0.00000000  0.00000000  -0.00300000  0.00000000  -0.00300000  0.00000000  0.00000000  0.09443764  -0.03288666  0.00337787  -0.01250158  0.00000000  0.00000000  0.00000000  -0.00300000  0.00337787  -0.01250158  0.09443764  -0.03288666
1.7000  0.09372820  -0.03485720  0.00345177  -0.01293637  0.00000000  -0.00300000  0.00000000  0.00000000  0.00345177  -0.01293637  0.09372820  -0.03485720  0.00000000  0.00000000  0.00000000  -0.00300000  0.00000000  -0.00300000  0.00000000  0.00000000  0.09372820  -0.03485720  0.00345177  -0.01293637  0.00000000  0.00000000  0.00000000  -0.00300000  0.00345177  -0.01293637  0.09372820  -0.03485720
1.8000  0.09297765  -0.03681246  0.00352005  -0.01336063  0.00000000  -0.00300000  0.00000000  0.00000000  0.00352005  -0.01336063  0.09297765  -0.03681246  0.00000000  0.00000000  0.00000000  -0.00300000  0.00000000  -0.00300000  0.00000000  0.00000000  0.09297765  -0.03681246  0.00352005  -0.01336063  0.00000000  0.00000000  0.00000000  -0.00300000  0.00352005  -0.01336063  0.09297765  -0.03681246
1.9000  0.09218632  -0.03875156  0.00358304  -0.01377523  0.00000000  -0.00300000  0.00000000  0.00000000  0.00358304  -0.01377523  0.09218632  -0.03875156  0.00000000  0.00000000  0.00000000  -0.00300000  0.00000000  -0.00300000  0.00000000  0.00000000  0.09218632  -0.03875156  0.00358304  -0.01377523  0.00000000  0.00000000  0.00000000  -0.00300000  0.00358304  -0.01377523  0.09218632  -0.03875156
2.0000  0.09135455  -0.04067366  0.00364103  -0.01418089  0.00000000  -0.00300000  0.00000000  0.00000000  0.00364103  -0.01418089  0.09135455  -0.04067366  0.00000000  0.00000000  0.00000000  -0.00300000  0.00000000  -0.00300000  0.00000000  0.00000000  0.09135455  -0.04067366  0.00364103  -0.01418089  0.00000000  0.00000000  0.00000000  -0.00300000  0.00364103  -0.01418089  0.09135455  -0.04067366
2.1000  0.09048271  -0.04257793  0.00369428  -0.01457826  0.00000000  -0.00300000  0.00000000  0.00000000  0.00369428  -0.01457826  0.09048271  -0.04257793  0.00000000  0.00000000  0.00000000  -0.00300000  0.00000000  -0.00300000  0.00000000  0.00000000  0.09048271  -0.04257793  0.00369428  -0.01457826  0.00000000  0.00000000  0.00000000  -0.00300000  0.00369428  -0.01457826  0.09048271  -0.04257793
2.2000  0.08957118  -0.04446352  0.00374302  -0.01496790  0.00000000  -0.00300000  0.00000000  0.00000000  0.00374302  -0.01496790  0.08957118  -0.04446352  0.00000000  0.00000000  0.00000000  -0.00300000  0.00000000  -0.00300000  0.00000000  0.00000000  0.08957118  -0.04446352  0.00374302  -0.01496790  0.00000000  0.00000000  0.00000000  -0.00300000  0.00374302  -0.01496790  0.08957118  -0.04446352
2.3000  0.08862036  -0.04632960  0.00378745  -0.01535033  0.00000000  -0.00300000  0.00000000  0.00000000  0.00378745  -0.01535033  0.08862036  -0.04632960  0.00000000  0.00000000  0.00000000  -0.00300000  0.00000000  -0.00300000  0.00000000  0.00000000  0.08862036  -0.04632960  0.00378745  -0.01535033  0.00000000  0.00000000  0.00000000  -0.00300000  0.00378745  -0.01535033  0.08862036  -0.04632960
2.4000  0.08763067  -0.04817537  0.00382777  -0.01572599  0.00000000  -0.00300000  0.00000000  0.00000000  0.00382777  -0.01572599  0.08763067  -0.04817537  0.00000000  0.00000000  0.00000000  -0.00300000  0.00000000  -0.00300000  0.00000000  0.00000000  0.08763067  -0.04817537  0.00382777  -0.01572599  0.00000000  0.00000000  0.00000000  -0.00300000  0.00382777  -0.01572599  0.08763067  -0.04817537
2.5000  0.08660254  -0.05000000  0.00386413  -0.01609528  0.00000000  -0.00300000  0.00000000  0.00000000  0.00386413  -0.01609528  0.08660254  -0.05000000  0.00000000  0.00000000  0.00000000  -0.00300000  0.00000000  -0.00300000  0.00000000  0.00000000  0.08660254  -0.05000000  0.00386413  -0.01609528  0.00000000  0.00000000  0.00000000  -0.00300000  0.00386413  -0.01609528  0.08660254  -0.05000000
2.6000  0.08553643  -0.05180270  0.00389671  -0.01645857  0.00000000  -0.00300000  0.00000000  0.00000000  0.00389671  -0.01645857  0.08553643  -0.05180270  0.00000000  0.00000000  0.00000000  -0.00300000  0.00000000  -0.00300000  0.00000000  0.00000000  0.08553643  -0.05180270  0.00389671  -0.01645857  0.00000000  0.00000000  0.00000000  -0.00300000  0.00389671  -0.01645857  0.08553643  -0.05180270
2.7000  0.08443279  -0.05358268  0.00392563  -0.01681619  0.00000000  -0.00300000  0.00000000  0.00000000  0.00392563  -0.01681619  0.08443279  -0.05358268  0.00000000  0.00000000  0.00000000  -0.00300000  0.00000000  -0.00300000  0.00000000  0.00000000  0.08443279  -0.05358268  0.00392563  -0.01681619  0.00000000  0.00000000  0.00000000  -0.00300000  0.00392563  -0.01681619  0.08443279  -0.05358268
2.8000  0.08329212  -0.05533915  0.00395102  -0.01716844  0.00000000  -0.00300000  0.00000000  0.00000000  0.00395102  -0.01716844  0.08329212  -0.05533915  0.00000000  0.00000000  0.00000000  -0.00300000  0.00000000  -0.00300000  0.00000000  0.00000000  0.08329212  -0.05533915  0.00395102  -0.01716844  0.00000000  0.00000000  0.00000000  -0.00300000  0.00395102  -0.01716844  0.08329212  -0.05533915
2.9000  0.08211492  -0.05707136  0.00397301  -0.01751558  0.00000000  -0.00300000  0.00000000  0.00000000  0.00397301  -0.01751558  0.08211492  -0.05707136  0.00000000  0.00000000  0.00000000  -0.00300000  0.00000000  -0.00300000  0.00000000  0.00000000  0.08211492  -0.05707136  0.00397301  -0.01751558  0.00000000  0.00000000  0.00000000  -0.00300000  0.00397301  -0.01751558  0.08211492  -0.05707136
3.0000  0.08090170  -0.05877853  0.00399171  -0.01785786  0.00000000  -0.00300000  0.00000000  0.00000000  0.00399171  -0.01785786  0.08090170  -0.05877853  0.00000000  0.00000000  0.00000000  -0.00300000  0.00000000  -0.00300000  0.00000000  0.00000000  0.08090170  -0.05877853  0.00399171  -0.01785786  0.00000000  0.00000000  0.00000000  -0.00300000  0.00399171  -0.01785786  0.08090170  -0.05877853
3.1000  0.07965299  -0.06045991  0.00400720  -0.01819552  0.00000000  -0.00300000  0.00000000  0.00000000  0.00400720  -0.01819552  0.07965299  -0.06045991  0.00000000  0.00000000  0.00000000  -0.00300000  0.00000000  -0.00300000  0.00000000  0.00000000  0.07965299  -0.06045991  0.00400720  -0.01819552  0.00000000  0.00000000  0.00000000  -0.00300000  0.00400720  -0.01819552  0.07965299  -0.06045991
3.2000  0.07836935  -0.06211478  0.00401960  -0.01852875  0.00000000  -0.00300000  0.00000000  0.00000000  0.00401960  -0.01852875  0.07836935  -0.06211478  0.00000000  0.00000000  0.00000000  -0.00300000  0.00000000  -0.00300000  0.00000000  0.00000000  0.07836935  -0.06211478  0.00401960  -0.01852875  0.00000000  0.00000000  0.00000000  -0.00300000  0.00401960  -0.01852875  0.07836935  -0.06211478
3.3000  0.07705132  -0.06374240  0.00402899  -0.01885776  0.00000000  -0.00300000  0.00000000  0.00000000  0.00402899  -0.01885776  0.07705132  -0.06374240  0.00000000  0.00000000  0.00000000  -0.00300000  0.00000000  -0.00300000  0.00000000  0.00000000  0.07705132  -0.06374240  0.00402899  -0.01885776  0.00000000  0.00000000  0.00000000  -0.00300000  0.00402899  -0.01885776  0.07705132  -0.06374240
3.4000  0.07569951  -0.06534206  0.00403544  -0.01918272  0.00000000  -0.00300000  0.00000000  0.00000000  0.00403544  -0.01918272  0.07569951  -0.06534206  0.00000000  0.00000000  0.00000000  -0.00300000  0.00000000  -0.00300000  0.00000000  0.00000000  0.07569951  -0.06534206  0.00403544  -0.01918272  0.00000000  0.00000000  0.00000000  -0.00300000  0.00403544  -0.01918272  0.07569951  -0.06534206
3.5000  0.07431448  -0.06691306  0.00403904  -0.01950379  0.00000000  -0.00300000  0.00000000  0.00000000  0.00403904  -0.01950379  0.07431448  -0.06691306  0.00000000  0.00000000  0.00000000  -0.00300000  0.00000000  -0.00300000  0.00000000  0.00000000  0.07431448  -0.06691306  0.00403904  -0.01950379  0.00000000  0.00000000  0.00000000  -0.00300000  0.00403904  -0.01950379  0.07431448  -0.06691306
3.6000  0.07289686  -0.06845471  0.00403986  -0.01982112  0.00000000  -0.00300000  0.00000000  0.00000000  0.00403986  -0.01982112  0.07289686  -0.06845471  0.00000000  0.00000000  0.00000000  -0.00300000  0.00000000  -0.00300000  0.00000000  0.00000000  0.07289686  -0.06845471  0.00403986  -0.01982112  0.00000000  0.00000000  0.00000000  -0.00300000  0.00403986  -0.01982112  0.07289686  -0.06845471
3.7000  0.07144727  -0.06996633  0.00403796  -0.02013486  0.00000000  -0.00300000  0.00000000  0.00000000  0.00403796  -0.02013486  0.07144727  -0.06996633  0.00000000  0.00000000  0.00000000  -0.00300000  0.00000000  -0.00300000  0.00000000  0.00000000  0.07144727  -0.06996633  0.00403796  -0.02013486  0.00000000  0.00000000  0.00000000  -0.00300000  0.00403796  -0.02013486  0.07144727  -0.06996633
3.8000  0.06996633  -0.07144727  0.00403342  -0.02044514  0.00000000  -0.00300000  0.00000000  0.00000000  0.00403342  -0.02044514  0.06996633  -0.07144727  0.00000000  0.00000000  0.00000000  -0.00300000  0.00000000  -0.00300000  0.00000000  0.00000000  0.06996633  -0.07144727  0.00403342  -0.02044514  0.00000000  0.00000000  0.00000000  -0.00300000  0.00403342  -0.02044514  0.06996633  -0.07144727
3.9000  0.06845471  -0.07289686  0.00402628  -0.02075208  0.00000000  -0.00300000  0.00000000  0.00000000  0.00402628  -0.02075208  0.06845471  -0.07289686  0.00000000  0.00000000  0.00000000  -0.00300000  0.00000000  -0.00300000  0.00000000  0.00000000  0.06845471  -0.07289686  0.00402628  -0.02075208  0.00000000  0.00000000  0.00000000  -0.00300000  0.00402628  -0.02075208  0.06845471  -0.07289686
4.0000  0.06691306  -0.07431448  0.00401661  -0.02105579  0.00000000  -0.00300000  0.00000000  0.00000000  0.00401661  -0.02105579  0.06691306  -0.07431448  0.00000000  0.00000000  0.00000000  -0.00300000  0.00000000  -0.00300000  0.00000000  0.00000000  0.06691306  -0.07431448  0.00401661  -0.02105579  0.00000000  0.00000000  0.00000000  -0.00300000  0.00401661  -0.02105579  0.06691306  -0.07431448
4.1000  0.06534206  -0.07569951  0.00400445  -0.02135638  0.00000000  -0.00300000  0.00000000  0.00000000  0.00400445  -0.02135638  0.06534206  -0.07569951  0.00000000  0.00000000  0.00000000  -0.00300000  0.00000000  -0.00300000  0.00000000  0.00000000  0.06534206  -0.07569951  0.00400445  -0.02135638  0.00000000  0.00000000  0.00000000  -0.00300000  0.00400445  -0.02135638  0.06534206  -0.07569951
4.2000  0.06374240  -0.07705132  0.00398987  -0.02165396  0.00000000  -0.00300000  0.00000000  0.00000000  0.00398987  -0.02165396  0.06374240  -0.07705132  0.00000000  0.00000000  0.00000000  -0.00300000  0.00000000  -0.00300000  0.00000000  0.00000000  0.06374240  -0.07705132  0.00398987  -0.02165396  0.00000000  0.00000000  0.00000000  -0.00300000  0.00398987  -0.02165396  0.06374240  -0.07705132
4.3000  0.06211478  -0.07836935  0.00397291  -0.02194861  0.00000000  -0.00300000  0.00000000  0.00000000  0.00397291  -0.02194861  0.06211478  -0.07836935  0.00000000  0.00000000  0.00000000  -0.00300000  0.00000000  -0.00300000  0.00000000  0.00000000  0.06211478  -0.07836935  0.00397291  -0.02194861  0.00000000  0.00000000  0.00000000  -0.00300000  0.00397291  -0.02194861  0.06211478  -0.07836935
4.4000  0.06045991  -0.07965299  0.00395361  -0.02224042  0.00000000  -0.00300000  0.00000000  0.00000000  0.00395361  -0.02224042  0.06045991  -0.07965299  0.00000000  0.00000000  0.00000000  -0.00300000  0.00000000  -0.00300000  0.00000000  0.00000000  0.06045991  -0.07965299  0.00395361  -0.02224042  0.00000000  0.00000000  0.00000000  -0.00300000  0.00395361  -0.02224042  0.06045991  -0.07965299
4.5000  0.05877853  -0.08090170  0.00393203  -0.02252949  0.00000000  -0.00300000  0.00000000  0.00000000  0.00393203  -0.02252949  0.05877853  -0.08090170  0.00000000  0.00000000  0.00000000  -0.00300000  0.00000000  -0.00300000  0.00000000  0.00000000  0.05877853  -0.08090170  0.00393203  -0.02252949  0.00000000  0.00000000  0.00000000  -0.00300000  0.00393203  -0.02252949  0.05877853  -0.08090170
4.6000  0.05707136  -0.08211492  0.00390819  -0.02281588  0.00000000  -0.00300000  0.00000000  0.00000000  0.00390819  -0.02281588  0.05707136  -0.08211492  0.00000000  0.00000000  0.00000000  -0.00300000  0.00000000  -0.00300000  0.00000000  0.00000000  0.05707136  -0.08211492  0.00390819  -0.02281588  0.00000000  0.00000000  0.00000000  -0.00300000  0.00390819  -0.02281588  0.05707136  -0.08211492
4.7000  0.05533915  -0.08329212  0.00388214  -0.02309966  0.00000000  -0.00300000  0.00000000  0.00000000  0.00388214  -0.02309966  0.05533915  -0.08329212  0.00000000  0.00000000  0.00000000  -0.00300000  0.00000000  -0.00300000  0.00000000  0.00000000  0.05533915  -0.08329212  0.00388214  -0.02309966  0.00000000  0.00000000  0.00000000  -0.00300000  0.00388214  -0.02309966  0.05533915  -0.08329212
4.8000  0.05358268  -0.08443279  0.00385392  -0.02338092  0.00000000  -0.00300000  0.00000000  0.00000000  0.00385392  -0.02338092  0.05358268  -0.08443279  0.00000000  0.00000000  0.00000000  -0.00300000  0.00000000  -0.00300000  0.00000000  0.00000000  0.05358268  -0.08443279  0.00385392  -0.02338092  0.00000000  0.00000000  0.00000000  -0.00300000  0.00385392  -0.02338092  0.05358268  -0.08443279
4.9000  0.05180270  -0.08553643  0.00382356  -0.02365971  0.00000000  -0.00300000  0.00000000  0.00000000  0.00382356  -0.02365971  0.05180270  -0.08553643  0.00000000  0.00000000  0.00000000  -0.00300000  0.00000000  -0.00300000  0.00000000  0.00000000  0.05180270  -0.08553643  0.00382356  -0.02365971  0.00000000  0.00000000  0.00000000  -0.00300000  0.00382356  -0.02365971  0.05180270  -0.08553643
