! S16P Test File
! Port Mapping: 1->2, 3->4, 5->6, 7->8, 9->10, 11->12, 13->14, 15->16
! NEXT: -40dB@1GHz, +11dB/decade  (matches test_NEXT.s4p)
! FEXT: -55dB@1GHz, +13dB/decade  (matches test_FEXT.s4p)
# GHz S RI R 50
0.100000  1.000000e-01 0.000000e+00  9.499622e-01 -3.086614e-01  0.000000e+00 0.000000e+00  0.000000e+00 0.000000e+00  4.453919e-03 3.454814e-03  0.000000e+00 0.000000e+00  0.000000e+00 0.000000e+00  0.000000e+00 0.000000e+00
  1.572608e-03 5.412951e-03  0.000000e+00 0.000000e+00  0.000000e+00 0.000000e+00  0.000000e+00 0.000000e+00  -1.909386e-03 5.303525e-03  0.000000e+00 0.000000e+00  0.000000e+00 0.000000e+00  0.000000e+00 0.000000e+00
  9.499622e-01 -3.086614e-01  1.000000e-01 0.000000e+00  0.000000e+00 0.000000e+00  0.000000e+00 0.000000e+00  7.572448e-04 2.460438e-04  0.000000e+00 0.000000e+00  0.000000e+00 0.000000e+00  0.000000e+00 0.000000e+00
  4.680030e-04 6.441509e-04  0.000000e+00 0.000000e+00  0.000000e+00 0.000000e+00  0.000000e+00 0.000000e+00  4.875407e-20 7.962143e-04  0.000000e+00 0.000000e+00  0.000000e+00 0.000000e+00  0.000000e+00 0.000000e+00
  0.000000e+00 0.000000e+00  0.000000e+00 0.000000e+00  1.000000e-01 0.000000e+00  9.499622e-01 -3.086614e-01  0.000000e+00 0.000000e+00  0.000000e+00 0.000000e+00  0.000000e+00 0.000000e+00  0.000000e+00 0.000000e+00
  0.000000e+00 0.000000e+00  0.000000e+00 0.000000e+00  0.000000e+00 0.000000e+00  0.000000e+00 0.000000e+00  0.000000e+00 0.000000e+00  0.000000e+00 0.000000e+00  0.000000e+00 0.000000e+00  0.000000e+00 0.000000e+00
  0.000000e+00 0.000000e+00  0.000000e+00 0.000000e+00  9.499622e-01 -3.086614e-01  1.000000e-01 0.000000e+00  0.000000e+00 0.000000e+00  0.000000e+00 0.000000e+00  0.000000e+00 0.000000e+00  0.000000e+00 0.000000e+00
  0.000000e+00 0.000000e+00  0.000000e+00 0.000000e+00  0.000000e+00 0.000000e+00  0.000000e+00 0.000000e+00  0.000000e+00 0.000000e+00  0.000000e+00 0.000000e+00  0.000000e+00 0.000000e+00  0.000000e+00 0.000000e+00
  4.453919e-03 3.454814e-03  0.000000e+00 0.000000e+00  0.000000e+00 0.000000e+00  0.000000e+00 0.000000e+00  1.000000e-01 0.000000e+00  9.499622e-01 -3.086614e-01  0.000000e+00 0.000000e+00  0.000000e+00 0.000000e+00
  4.453919e-03 3.454814e-03  0.000000e+00 0.000000e+00  0.000000e+00 0.000000e+00  0.000000e+00 0.000000e+00  1.572608e-03 5.412951e-03  0.000000e+00 0.000000e+00  0.000000e+00 0.000000e+00  0.000000e+00 0.000000e+00
  7.572448e-04 2.460438e-04  0.000000e+00 0.000000e+00  0.000000e+00 0.000000e+00  0.000000e+00 0.000000e+00  9.499622e-01 -3.086614e-01  1.000000e-01 0.000000e+00  0.000000e+00 0.000000e+00  0.000000e+00 0.000000e+00
  7.572448e-04 2.460438e-04  0.000000e+00 0.000000e+00  0.000000e+00 0.000000e+00  0.000000e+00 0.000000e+00  4.680030e-04 6.441509e-04  0.000000e+00 0.000000e+00  0.000000e+00 0.000000e+00  0.000000e+00 0.000000e+00
  0.000000e+00 0.000000e+00  0.000000e+00 0.000000e+00  0.000000e+00 0.000000e+00  0.000000e+00 0.000000e+00  0.000000e+00 0.000000e+00  0.000000e+00 0.000000e+00  1.000000e-01 0.000000e+00  9.499622e-01 -3.086614e-01
  0.000000e+00 0.000000e+00  0.000000e+00 0.000000e+00  0.000000e+00 0.000000e+00  0.000000e+00 0.000000e+00  0.000000e+00 0.000000e+00  0.000000e+00 0.000000e+00  0.000000e+00 0.000000e+00  0.000000e+00 0.000000e+00
  0.000000e+00 0.000000e+00  0.000000e+00 0.000000e+00  0.000000e+00 0.000000e+00  0.000000e+00 0.000000e+00  0.000000e+00 0.000000e+00  0.000000e+00 0.000000e+00  9.499622e-01 -3.086614e-01  1.000000e-01 0.000000e+00
  0.000000e+00 0.000000e+00  0.000000e+00 0.000000e+00  0.000000e+00 0.000000e+00  0.000000e+00 0.000000e+00  0.000000e+00 0.000000e+00  0.000000e+00 0.000000e+00  0.000000e+00 0.000000e+00  0.000000e+00 0.000000e+00
  1.572608e-03 5.412951e-03  0.000000e+00 0.000000e+00  0.000000e+00 0.000000e+00  0.000000e+00 0.000000e+00  4.453919e-03 3.454814e-03  0.000000e+00 0.000000e+00  0.000000e+00 0.000000e+00  0.000000e+00 0.000000e+00
  1.000000e-01 0.000000e+00  9.499622e-01 -3.086614e-01  0.000000e+00 0.000000e+00  0.000000e+00 0.000000e+00  4.453919e-03 3.454814e-03  0.000000e+00 0.000000e+00  0.000000e+00 0.000000e+00  0.000000e+00 0.000000e+00
  4.680030e-04 6.441509e-04  0.000000e+00 0.000000e+00  0.000000e+00 0.000000e+00  0.000000e+00 0.000000e+00  7.572448e-04 2.460438e-04  0.000000e+00 0.000000e+00  0.000000e+00 0.000000e+00  0.000000e+00 0.000000e+00
  9.499622e-01 -3.086614e-01  1.000000e-01 0.000000e+00  0.000000e+00 0.000000e+00  0.000000e+00 0.000000e+00  7.572448e-04 2.460438e-04  0.000000e+00 0.000000e+00  0.000000e+00 0.000000e+00  0.000000e+00 0.000000e+00
  0.000000e+00 0.000000e+00  0.000000e+00 0.000000e+00  0.000000e+00 0.000000e+00  0.000000e+00 0.000000e+00  0.000000e+00 0.000000e+00  0.000000e+00 0.000000e+00  0.000000e+00 0.000000e+00  0.000000e+00 0.000000e+00
  0.000000e+00 0.000000e+00  0.000000e+00 0.000000e+00  1.000000e-01 0.000000e+00  9.499622e-01 -3.086614e-01  0.000000e+00 0.000000e+00  0.000000e+00 0.000000e+00  0.000000e+00 0.000000e+00  0.000000e+00 0.000000e+00
  0.000000e+00 0.000000e+00  0.000000e+00 0.000000e+00  0.000000e+00 0.000000e+00  0.000000e+00 0.000000e+00  0.000000e+00 0.000000e+00  0.000000e+00 0.000000e+00  0.000000e+00 0.000000e+00  0.000000e+00 0.000000e+00
  0.000000e+00 0.000000e+00  0.000000e+00 0.000000e+00  9.499622e-01 -3.086614e-01  1.000000e-01 0.000000e+00  0.000000e+00 0.000000e+00  0.000000e+00 0.000000e+00  0.000000e+00 0.000000e+00  0.000000e+00 0.000000e+00
  -1.909386e-03 5.303525e-03  0.000000e+00 0.000000e+00  0.000000e+00 0.000000e+00  0.000000e+00 0.000000e+00  1.572608e-03 5.412951e-03  0.000000e+00 0.000000e+00  0.000000e+00 0.000000e+00  0.000000e+00 0.000000e+00
  4.453919e-03 3.454814e-03  0.000000e+00 0.000000e+00  0.000000e+00 0.000000e+00  0.000000e+00 0.000000e+00  1.000000e-01 0.000000e+00  9.499622e-01 -3.086614e-01  0.000000e+00 0.000000e+00  0.000000e+00 0.000000e+00
  4.875407e-20 7.962143e-04  0.000000e+00 0.000000e+00  0.000000e+00 0.000000e+00  0.000000e+00 0.000000e+00  4.680030e-04 6.441509e-04  0.000000e+00 0.000000e+00  0.000000e+00 0.000000e+00  0.000000e+00 0.000000e+00
  7.572448e-04 2.460438e-04  0.000000e+00 0.000000e+00  0.000000e+00 0.000000e+00  0.000000e+00 0.000000e+00  9.499622e-01 -3.086614e-01  1.000000e-01 0.000000e+00  0.000000e+00 0.000000e+00  0.000000e+00 0.000000e+00
  0.000000e+00 0.000000e+00  0.000000e+00 0.000000e+00  0.000000e+00 0.000000e+00  0.000000e+00 0.000000e+00  0.000000e+00 0.000000e+00  0.000000e+00 0.000000e+00  0.000000e+00 0.000000e+00  0.000000e+00 0.000000e+00
  0.000000e+00 0.000000e+00  0.000000e+00 0.000000e+00  0.000000e+00 0.000000e+00  0.000000e+00 0.000000e+00  0.000000e+00 0.000000e+00  0.000000e+00 0.000000e+00  1.000000e-01 0.000000e+00  9.499622e-01 -3.086614e-01
  0.000000e+00 0.000000e+00  0.000000e+00 0.000000e+00  0.000000e+00 0.000000e+00  0.000000e+00 0.000000e+00  0.000000e+00 0.000000e+00  0.000000e+00 0.000000e+00  0.000000e+00 0.000000e+00  0.000000e+00 0.000000e+00
  0.000000e+00 0.000000e+00  0.000000e+00 0.000000e+00  0.000000e+00 0.000000e+00  0.000000e+00 0.000000e+00  0.000000e+00 0.000000e+00  0.000000e+00 0.000000e+00  9.499622e-01 -3.086614e-01  1.000000e-01 0.000000e+00
0.200000  1.000000e-01 0.000000e+00  8.071563e-01 -5.864334e-01  0.000000e+00 0.000000e+00  0.000000e+00 0.000000e+00  6.358821e-03 5.260474e-03  0.000000e+00 0.000000e+00  0.000000e+00 0.000000e+00  0.000000e+00 0.000000e+00
  2.052365e-03 7.993434e-03  0.000000e+00 0.000000e+00  0.000000e+00 0.000000e+00  0.000000e+00 0.000000e+00  -3.038025e-03 7.673174e-03  0.000000e+00 0.000000e+00  0.000000e+00 0.000000e+00  0.000000e+00 0.000000e+00
  8.071563e-01 -5.864334e-01  1.000000e-01 0.000000e+00  0.000000e+00 0.000000e+00  0.000000e+00 0.000000e+00  1.249394e-03 0.000000e+00  0.000000e+00 0.000000e+00  0.000000e+00 0.000000e+00  0.000000e+00 0.000000e+00
  1.010781e-03 7.343755e-04  0.000000e+00 0.000000e+00  0.000000e+00 0.000000e+00  0.000000e+00 0.000000e+00  3.860840e-04 1.188245e-03  0.000000e+00 0.000000e+00  0.000000e+00 0.000000e+00  0.000000e+00 0.000000e+00
  0.000000e+00 0.000000e+00  0.000000e+00 0.000000e+00  1.000000e-01 0.000000e+00  8.071563e-01 -5.864334e-01  0.000000e+00 0.000000e+00  0.000000e+00 0.000000e+00  0.000000e+00 0.000000e+00  0.000000e+00 0.000000e+00
  0.000000e+00 0.000000e+00  0.000000e+00 0.000000e+00  0.000000e+00 0.000000e+00  0.000000e+00 0.000000e+00  0.000000e+00 0.000000e+00  0.000000e+00 0.000000e+00  0.000000e+00 0.000000e+00  0.000000e+00 0.000000e+00
  0.000000e+00 0.000000e+00  0.000000e+00 0.000000e+00  8.071563e-01 -5.864334e-01  1.000000e-01 0.000000e+00  0.000000e+00 0.000000e+00  0.000000e+00 0.000000e+00  0.000000e+00 0.000000e+00  0.000000e+00 0.000000e+00
  0.000000e+00 0.000000e+00  0.000000e+00 0.000000e+00  0.000000e+00 0.000000e+00  0.000000e+00 0.000000e+00  0.000000e+00 0.000000e+00  0.000000e+00 0.000000e+00  0.000000e+00 0.000000e+00  0.000000e+00 0.000000e+00
  6.358821e-03 5.260474e-03  0.000000e+00 0.000000e+00  0.000000e+00 0.000000e+00  0.000000e+00 0.000000e+00  1.000000e-01 0.000000e+00  8.071563e-01 -5.864334e-01  0.000000e+00 0.000000e+00  0.000000e+00 0.000000e+00
  6.358821e-03 5.260474e-03  0.000000e+00 0.000000e+00  0.000000e+00 0.000000e+00  0.000000e+00 0.000000e+00  2.052365e-03 7.993434e-03  0.000000e+00 0.000000e+00  0.000000e+00 0.000000e+00  0.000000e+00 0.000000e+00
  1.249394e-03 0.000000e+00  0.000000e+00 0.000000e+00  0.000000e+00 0.000000e+00  0.000000e+00 0.000000e+00  8.071563e-01 -5.864334e-01  1.000000e-01 0.000000e+00  0.000000e+00 0.000000e+00  0.000000e+00 0.000000e+00
  1.249394e-03 0.000000e+00  0.000000e+00 0.000000e+00  0.000000e+00 0.000000e+00  0.000000e+00 0.000000e+00  1.010781e-03 7.343755e-04  0.000000e+00 0.000000e+00  0.000000e+00 0.000000e+00  0.000000e+00 0.000000e+00
  0.000000e+00 0.000000e+00  0.000000e+00 0.000000e+00  0.000000e+00 0.000000e+00  0.000000e+00 0.000000e+00  0.000000e+00 0.000000e+00  0.000000e+00 0.000000e+00  1.000000e-01 0.000000e+00  8.071563e-01 -5.864334e-01
  0.000000e+00 0.000000e+00  0.000000e+00 0.000000e+00  0.000000e+00 0.000000e+00  0.000000e+00 0.000000e+00  0.000000e+00 0.000000e+00  0.000000e+00 0.000000e+00  0.000000e+00 0.000000e+00  0.000000e+00 0.000000e+00
  0.000000e+00 0.000000e+00  0.000000e+00 0.000000e+00  0.000000e+00 0.000000e+00  0.000000e+00 0.000000e+00  0.000000e+00 0.000000e+00  0.000000e+00 0.000000e+00  8.071563e-01 -5.864334e-01  1.000000e-01 0.000000e+00
  0.000000e+00 0.000000e+00  0.000000e+00 0.000000e+00  0.000000e+00 0.000000e+00  0.000000e+00 0.000000e+00  0.000000e+00 0.000000e+00  0.000000e+00 0.000000e+00  0.000000e+00 0.000000e+00  0.000000e+00 0.000000e+00
  2.052365e-03 7.993434e-03  0.000000e+00 0.000000e+00  0.000000e+00 0.000000e+00  0.000000e+00 0.000000e+00  6.358821e-03 5.260474e-03  0.000000e+00 0.000000e+00  0.000000e+00 0.000000e+00  0.000000e+00 0.000000e+00
  1.000000e-01 0.000000e+00  8.071563e-01 -5.864334e-01  0.000000e+00 0.000000e+00  0.000000e+00 0.000000e+00  6.358821e-03 5.260474e-03  0.000000e+00 0.000000e+00  0.000000e+00 0.000000e+00  0.000000e+00 0.000000e+00
  1.010781e-03 7.343755e-04  0.000000e+00 0.000000e+00  0.000000e+00 0.000000e+00  0.000000e+00 0.000000e+00  1.249394e-03 0.000000e+00  0.000000e+00 0.000000e+00  0.000000e+00 0.000000e+00  0.000000e+00 0.000000e+00
  8.071563e-01 -5.864334e-01  1.000000e-01 0.000000e+00  0.000000e+00 0.000000e+00  0.000000e+00 0.000000e+00  1.249394e-03 0.000000e+00  0.000000e+00 0.000000e+00  0.000000e+00 0.000000e+00  0.000000e+00 0.000000e+00
  0.000000e+00 0.000000e+00  0.000000e+00 0.000000e+00  0.000000e+00 0.000000e+00  0.000000e+00 0.000000e+00  0.000000e+00 0.000000e+00  0.000000e+00 0.000000e+00  0.000000e+00 0.000000e+00  0.000000e+00 0.000000e+00
  0.000000e+00 0.000000e+00  0.000000e+00 0.000000e+00  1.000000e-01 0.000000e+00  8.071563e-01 -5.864334e-01  0.000000e+00 0.000000e+00  0.000000e+00 0.000000e+00  0.000000e+00 0.000000e+00  0.000000e+00 0.000000e+00
  0.000000e+00 0.000000e+00  0.000000e+00 0.000000e+00  0.000000e+00 0.000000e+00  0.000000e+00 0.000000e+00  0.000000e+00 0.000000e+00  0.000000e+00 0.000000e+00  0.000000e+00 0.000000e+00  0.000000e+00 0.000000e+00
  0.000000e+00 0.000000e+00  0.000000e+00 0.000000e+00  8.071563e-01 -5.864334e-01  1.000000e-01 0.000000e+00  0.000000e+00 0.000000e+00  0.000000e+00 0.000000e+00  0.000000e+00 0.000000e+00  0.000000e+00 0.000000e+00
  -3.038025e-03 7.673174e-03  0.000000e+00 0.000000e+00  0.000000e+00 0.000000e+00  0.000000e+00 0.000000e+00  2.052365e-03 7.993434e-03  0.000000e+00 0.000000e+00  0.000000e+00 0.000000e+00  0.000000e+00 0.000000e+00
  6.358821e-03 5.260474e-03  0.000000e+00 0.000000e+00  0.000000e+00 0.000000e+00  0.000000e+00 0.000000e+00  1.000000e-01 0.000000e+00  8.071563e-01 -5.864334e-01  0.000000e+00 0.000000e+00  0.000000e+00 0.000000e+00
  3.860840e-04 1.188245e-03  0.000000e+00 0.000000e+00  0.000000e+00 0.000000e+00  0.000000e+00 0.000000e+00  1.010781e-03 7.343755e-04  0.000000e+00 0.000000e+00  0.000000e+00 0.000000e+00  0.000000e+00 0.000000e+00
  1.249394e-03 0.000000e+00  0.000000e+00 0.000000e+00  0.000000e+00 0.000000e+00  0.000000e+00 0.000000e+00  8.071563e-01 -5.864334e-01  1.000000e-01 0.000000e+00  0.000000e+00 0.000000e+00  0.000000e+00 0.000000e+00
  0.000000e+00 0.000000e+00  0.000000e+00 0.000000e+00  0.000000e+00 0.000000e+00  0.000000e+00 0.000000e+00  0.000000e+00 0.000000e+00  0.000000e+00 0.000000e+00  0.000000e+00 0.000000e+00  0.000000e+00 0.000000e+00
  0.000000e+00 0.000000e+00  0.000000e+00 0.000000e+00  0.000000e+00 0.000000e+00  0.000000e+00 0.000000e+00  0.000000e+00 0.000000e+00  0.000000e+00 0.000000e+00  1.000000e-01 0.000000e+00  8.071563e-01 -5.864334e-01
  0.000000e+00 0.000000e+00  0.000000e+00 0.000000e+00  0.000000e+00 0.000000e+00  0.000000e+00 0.000000e+00  0.000000e+00 0.000000e+00  0.000000e+00 0.000000e+00  0.000000e+00 0.000000e+00  0.000000e+00 0.000000e+00
  0.000000e+00 0.000000e+00  0.000000e+00 0.000000e+00  0.000000e+00 0.000000e+00  0.000000e+00 0.000000e+00  0.000000e+00 0.000000e+00  0.000000e+00 0.000000e+00  8.071563e-01 -5.864334e-01  1.000000e-01 0.000000e+00
0.300000  1.000000e-01 0.000000e+00  5.857586e-01 -8.062276e-01  0.000000e+00 0.000000e+00  0.000000e+00 0.000000e+00  7.736994e-03 6.821078e-03  0.000000e+00 0.000000e+00  0.000000e+00 0.000000e+00  0.000000e+00 0.000000e+00
  2.250031e-03 1.006606e-02  0.000000e+00 0.000000e+00  0.000000e+00 0.000000e+00  0.000000e+00 0.000000e+00  -4.096368e-03 9.466148e-03  0.000000e+00 0.000000e+00  0.000000e+00 0.000000e+00  0.000000e+00 0.000000e+00
  5.857586e-01 -8.062276e-01  1.000000e-01 0.000000e+00  0.000000e+00 0.000000e+00  0.000000e+00 0.000000e+00  1.546554e-03 -5.025059e-04  0.000000e+00 0.000000e+00  0.000000e+00 0.000000e+00  0.000000e+00 0.000000e+00
  1.546554e-03 5.025059e-04  0.000000e+00 0.000000e+00  0.000000e+00 0.000000e+00  0.000000e+00 0.000000e+00  9.558230e-04 1.315578e-03  0.000000e+00 0.000000e+00  0.000000e+00 0.000000e+00  0.000000e+00 0.000000e+00
  0.000000e+00 0.000000e+00  0.000000e+00 0.000000e+00  1.000000e-01 0.000000e+00  5.857586e-01 -8.062276e-01  0.000000e+00 0.000000e+00  0.000000e+00 0.000000e+00  0.000000e+00 0.000000e+00  0.000000e+00 0.000000e+00
  0.000000e+00 0.000000e+00  0.000000e+00 0.000000e+00  0.000000e+00 0.000000e+00  0.000000e+00 0.000000e+00  0.000000e+00 0.000000e+00  0.000000e+00 0.000000e+00  0.000000e+00 0.000000e+00  0.000000e+00 0.000000e+00
  0.000000e+00 0.000000e+00  0.000000e+00 0.000000e+00  5.857586e-01 -8.062276e-01  1.000000e-01 0.000000e+00  0.000000e+00 0.000000e+00  0.000000e+00 0.000000e+00  0.000000e+00 0.000000e+00  0.000000e+00 0.000000e+00
  0.000000e+00 0.000000e+00  0.000000e+00 0.000000e+00  0.000000e+00 0.000000e+00  0.000000e+00 0.000000e+00  0.000000e+00 0.000000e+00  0.000000e+00 0.000000e+00  0.000000e+00 0.000000e+00  0.000000e+00 0.000000e+00
  7.736994e-03 6.821078e-03  0.000000e+00 0.000000e+00  0.000000e+00 0.000000e+00  0.000000e+00 0.000000e+00  1.000000e-01 0.000000e+00  5.857586e-01 -8.062276e-01  0.000000e+00 0.000000e+00  0.000000e+00 0.000000e+00
  7.736994e-03 6.821078e-03  0.000000e+00 0.000000e+00  0.000000e+00 0.000000e+00  0.000000e+00 0.000000e+00  2.250031e-03 1.006606e-02  0.000000e+00 0.000000e+00  0.000000e+00 0.000000e+00  0.000000e+00 0.000000e+00
  1.546554e-03 -5.025059e-04  0.000000e+00 0.000000e+00  0.000000e+00 0.000000e+00  0.000000e+00 0.000000e+00  5.857586e-01 -8.062276e-01  1.000000e-01 0.000000e+00  0.000000e+00 0.000000e+00  0.000000e+00 0.000000e+00
  1.546554e-03 -5.025059e-04  0.000000e+00 0.000000e+00  0.000000e+00 0.000000e+00  0.000000e+00 0.000000e+00  1.546554e-03 5.025059e-04  0.000000e+00 0.000000e+00  0.000000e+00 0.000000e+00  0.000000e+00 0.000000e+00
  0.000000e+00 0.000000e+00  0.000000e+00 0.000000e+00  0.000000e+00 0.000000e+00  0.000000e+00 0.000000e+00  0.000000e+00 0.000000e+00  0.000000e+00 0.000000e+00  1.000000e-01 0.000000e+00  5.857586e-01 -8.062276e-01
  0.000000e+00 0.000000e+00  0.000000e+00 0.000000e+00  0.000000e+00 0.000000e+00  0.000000e+00 0.000000e+00  0.000000e+00 0.000000e+00  0.000000e+00 0.000000e+00  0.000000e+00 0.000000e+00  0.000000e+00 0.000000e+00
  0.000000e+00 0.000000e+00  0.000000e+00 0.000000e+00  0.000000e+00 0.000000e+00  0.000000e+00 0.000000e+00  0.000000e+00 0.000000e+00  0.000000e+00 0.000000e+00  5.857586e-01 -8.062276e-01  1.000000e-01 0.000000e+00
  0.000000e+00 0.000000e+00  0.000000e+00 0.000000e+00  0.000000e+00 0.000000e+00  0.000000e+00 0.000000e+00  0.000000e+00 0.000000e+00  0.000000e+00 0.000000e+00  0.000000e+00 0.000000e+00  0.000000e+00 0.000000e+00
  2.250031e-03 1.006606e-02  0.000000e+00 0.000000e+00  0.000000e+00 0.000000e+00  0.000000e+00 0.000000e+00  7.736994e-03 6.821078e-03  0.000000e+00 0.000000e+00  0.000000e+00 0.000000e+00  0.000000e+00 0.000000e+00
  1.000000e-01 0.000000e+00  5.857586e-01 -8.062276e-01  0.000000e+00 0.000000e+00  0.000000e+00 0.000000e+00  7.736994e-03 6.821078e-03  0.000000e+00 0.000000e+00  0.000000e+00 0.000000e+00  0.000000e+00 0.000000e+00
  1.546554e-03 5.025059e-04  0.000000e+00 0.000000e+00  0.000000e+00 0.000000e+00  0.000000e+00 0.000000e+00  1.546554e-03 -5.025059e-04  0.000000e+00 0.000000e+00  0.000000e+00 0.000000e+00  0.000000e+00 0.000000e+00
  5.857586e-01 -8.062276e-01  1.000000e-01 0.000000e+00  0.000000e+00 0.000000e+00  0.000000e+00 0.000000e+00  1.546554e-03 -5.025059e-04  0.000000e+00 0.000000e+00  0.000000e+00 0.000000e+00  0.000000e+00 0.000000e+00
  0.000000e+00 0.000000e+00  0.000000e+00 0.000000e+00  0.000000e+00 0.000000e+00  0.000000e+00 0.000000e+00  0.000000e+00 0.000000e+00  0.000000e+00 0.000000e+00  0.000000e+00 0.000000e+00  0.000000e+00 0.000000e+00
  0.000000e+00 0.000000e+00  0.000000e+00 0.000000e+00  1.000000e-01 0.000000e+00  5.857586e-01 -8.062276e-01  0.000000e+00 0.000000e+00  0.000000e+00 0.000000e+00  0.000000e+00 0.000000e+00  0.000000e+00 0.000000e+00
  0.000000e+00 0.000000e+00  0.000000e+00 0.000000e+00  0.000000e+00 0.000000e+00  0.000000e+00 0.000000e+00  0.000000e+00 0.000000e+00  0.000000e+00 0.000000e+00  0.000000e+00 0.000000e+00  0.000000e+00 0.000000e+00
  0.000000e+00 0.000000e+00  0.000000e+00 0.000000e+00  5.857586e-01 -8.062276e-01  1.000000e-01 0.000000e+00  0.000000e+00 0.000000e+00  0.000000e+00 0.000000e+00  0.000000e+00 0.000000e+00  0.000000e+00 0.000000e+00
  -4.096368e-03 9.466148e-03  0.000000e+00 0.000000e+00  0.000000e+00 0.000000e+00  0.000000e+00 0.000000e+00  2.250031e-03 1.006606e-02  0.000000e+00 0.000000e+00  0.000000e+00 0.000000e+00  0.000000e+00 0.000000e+00
  7.736994e-03 6.821078e-03  0.000000e+00 0.000000e+00  0.000000e+00 0.000000e+00  0.000000e+00 0.000000e+00  1.000000e-01 0.000000e+00  5.857586e-01 -8.062276e-01  0.000000e+00 0.000000e+00  0.000000e+00 0.000000e+00
